1300864400,00000220,false,0,8,D0,E3,88,9C,03,F9,8F,EB
1300874400,00000220,false,0,8,D0,03,89,A0,03,FA,8F,F1
1300884200,00000220,false,0,8,D0,63,89,9C,03,02,90,04
1300894400,00000220,false,0,8,D1,23,89,A0,03,04,90,1D
1300904400,00000220,false,0,8,D0,A3,88,A0,03,04,90,2B
1300914200,00000220,false,0,8,D3,A3,88,A0,03,03,90,3D
1300924400,00000220,false,0,8,D3,A3,88,A0,03,04,90,4C
1300934300,00000220,false,0,8,D1,E3,88,9C,03,05,90,59
1300944300,00000220,false,0,8,D3,E3,88,98,03,07,90,69
1300954100,00000220,false,0,8,D1,A3,88,9C,03,03,90,77
1300964100,00000220,false,0,8,CD,83,88,A0,03,01,90,85
1300974300,00000220,false,0,8,CE,A3,88,9C,03,02,90,93
1300984300,00000220,false,0,8,CE,E3,88,A0,03,00,90,A5
1300994300,00000220,false,0,8,CE,03,89,A0,03,03,90,B9
1301004300,00000220,false,0,8,CF,E3,88,A0,03,FE,8F,C3
1301014200,00000220,false,0,8,CF,C3,88,A0,03,FC,8F,D1
1301024200,00000220,false,0,8,CF,C3,88,9C,03,05,90,E7
1301034200,00000220,false,0,8,CF,A3,88,9C,03,09,90,FB
1301044200,00000220,false,0,8,CF,A3,88,A0,03,03,90,09
1301054200,00000220,false,0,8,D0,83,88,A0,03,FC,8F,10
1301064200,00000220,false,0,8,D1,83,88,9C,03,FE,8F,21
1301074200,00000220,false,0,8,D0,C3,88,A0,03,FF,8F,35
1301084200,00000220,false,0,8,CF,C3,88,9C,03,F9,8F,48
1301094200,00000220,false,0,8,CF,C3,88,9C,03,FB,8F,5A
1301104100,00000220,false,0,8,CE,03,89,9C,03,04,90,64
1301114400,00000220,false,0,8,CF,E3,88,A0,03,04,90,78
1301124100,00000220,false,0,8,D1,C3,88,A0,03,04,90,8A
1301134100,00000220,false,0,8,D1,A3,88,A0,03,02,90,98
1301144100,00000220,false,0,8,D0,A3,88,A0,03,02,90,A9
1301154100,00000220,false,0,8,D0,A3,88,A0,03,01,90,B6
1301164100,00000220,false,0,8,D3,A3,88,A0,03,FB,8F,C2
1301174000,00000220,false,0,8,D3,E3,88,A0,03,FD,8F,D4
1301183800,00000220,false,0,8,D0,C3,88,A0,03,01,90,E6
1301194000,00000220,false,0,8,CF,A3,88,A0,03,01,90,F7
1301204000,00000220,false,0,8,D0,A3,88,A0,03,08,90,0F
1301214000,00000220,false,0,8,D0,E3,88,A0,03,07,90,1C
1301224000,00000220,false,0,8,D0,E3,88,A4,03,FC,8F,24
1301234000,00000220,false,0,8,D1,C3,88,A0,03,F5,8F,3A
1301244000,00000220,false,0,8,D0,C3,88,A0,03,FA,8F,4E
1301253900,00000220,false,0,8,CE,83,88,9C,03,02,90,53
1301264000,00000220,false,0,8,CD,E3,88,98,03,00,90,6A
1301273900,00000220,false,0,8,CF,03,89,9C,03,05,90,76
1301283900,00000220,false,0,8,D1,03,89,A0,03,06,90,8F
1301293900,00000220,false,0,8,D0,E3,88,A0,03,02,90,99
1301303900,00000220,false,0,8,CD,C3,88,98,03,02,90,AC
1301314200,00000220,false,0,8,CE,C3,88,98,03,FF,8F,BB
1301323900,00000220,false,0,8,CF,E3,88,9C,03,F8,8F,C9
1301333900,00000220,false,0,8,D2,E3,88,A0,03,F9,8F,D1
1301343900,00000220,false,0,8,D2,E3,88,9C,03,FB,8F,EF
1301353800,00000220,false,0,8,D1,E3,88,9C,03,F8,8F,FB
1301363800,00000220,false,0,8,D2,C3,88,9C,03,FA,8F,0C
1301373800,00000220,false,0,8,D5,A3,88,A0,03,F9,8F,12
1301383800,00000220,false,0,8,D4,83,88,A0,03,F8,8F,20
1301393800,00000220,false,0,8,D2,C3,88,9C,03,FE,8F,30
1301403800,00000220,false,0,8,D1,23,89,9C,03,05,90,48
1301413700,00000220,false,0,8,D0,43,89,9C,03,04,90,56
1301423700,00000220,false,0,8,CF,E3,88,9C,03,02,90,62
1301433700,00000220,false,0,8,CF,E3,88,98,03,FF,8F,7A
1301443700,00000220,false,0,8,CE,E3,88,A0,03,FF,8F,83
1301453700,00000220,false,0,8,CF,C3,88,A0,03,02,90,96
1301463700,00000220,false,0,8,D0,A3,88,A0,03,FD,8F,A3
1301473700,00000220,false,0,8,D1,E3,88,A0,03,F9,8F,BE
1301483700,00000220,false,0,8,D1,23,89,A0,03,FE,8F,C4
1301493600,00000220,false,0,8,D2,23,89,9C,03,07,90,DD
1301503700,00000220,false,0,8,D3,23,89,A0,03,09,90,E2
1301513700,00000220,false,0,8,D2,23,89,A0,03,0A,90,F2
1301523600,00000220,false,0,8,CE,C3,88,A0,03,0D,90,00
1301533600,00000220,false,0,8,CC,A3,88,9C,03,10,90,1F
1301543600,00000220,false,0,8,CE,C3,88,A0,03,09,90,2C
1301553300,00000220,false,0,8,D0,83,88,A0,03,FF,8F,35
1301563600,00000220,false,0,8,D0,83,88,9C,03,00,90,43
1301573600,00000220,false,0,8,D0,03,89,A0,03,05,90,5D
1301583600,00000220,false,0,8,D0,03,89,A0,03,04,90,6A
1301593500,00000220,false,0,8,CF,A3,88,A0,03,06,90,7A
1301603500,00000220,false,0,8,D0,63,88,9C,03,08,90,8B
1301613500,00000220,false,0,8,CF,A3,88,A4,03,05,90,9F
1301623500,00000220,false,0,8,CF,C3,88,A0,03,01,90,A7
1301633500,00000220,false,0,8,CF,A3,88,9C,03,00,90,B0
1301643500,00000220,false,0,8,D0,63,88,A0,03,01,90,C6
1301653500,00000220,false,0,8,D1,83,88,A0,03,01,90,D9
1301663500,00000220,false,0,8,D0,A3,88,A0,03,02,90,E9
1301673400,00000220,false,0,8,D0,A3,88,9C,03,06,90,F9
1301683000,00000220,false,0,8,CF,A3,88,9C,03,05,90,07
1301693400,00000220,false,0,8,CF,A3,88,A0,03,07,90,1D
1301703200,00000220,false,0,8,CF,C3,88,A0,03,0A,90,2E
1301713500,00000220,false,0,8,CF,E3,88,A0,03,04,90,38
1301723400,00000220,false,0,8,D0,E3,88,A0,03,01,90,46
1301733400,00000220,false,0,8,D0,E3,88,A0,03,FF,8F,55
1301743400,00000220,false,0,8,CF,63,89,A0,03,04,90,6B
1301753300,00000220,false,0,8,CF,43,89,9C,03,04,90,77
1301763300,00000220,false,0,8,D1,23,89,A0,03,00,90,89
1301773300,00000220,false,0,8,D2,E3,88,9C,03,00,90,95
1301783300,00000220,false,0,8,D0,C3,88,A0,03,02,90,A9
1301793300,00000220,false,0,8,CE,C3,88,A0,03,00,90,B5
1301803300,00000220,false,0,8,CD,E3,88,A0,03,01,90,C5
1301813200,00000220,false,0,8,CD,23,89,A0,03,FF,8F,D3
1301823300,00000220,false,0,8,CE,E3,88,9C,03,05,90,E4
1301833300,00000220,false,0,8,D1,A3,88,A0,03,05,90,FD
1301843200,00000220,false,0,8,D3,A3,88,A0,03,03,90,0D
1301853000,00000220,false,0,8,D3,C3,88,A0,03,05,90,1F
1301863200,00000220,false,0,8,D1,C3,88,98,03,07,90,27
1301873200,00000220,false,0,8,D1,C3,88,A0,03,07,90,3F
1301883200,00000220,false,0,8,CF,03,89,9C,03,02,90,45
1301893200,00000220,false,0,8,CE,63,89,A0,03,FE,8F,53
1301903200,00000220,false,0,8,CE,63,89,9C,03,FB,8F,6A
1301913200,00000220,false,0,8,D0,23,89,9C,03,FD,8F,7E
1301923100,00000220,false,0,8,CF,E3,88,98,03,02,90,8E
1301933100,00000220,false,0,8,CF,E3,88,A0,03,01,90,97
1301943100,00000220,false,0,8,D0,03,89,A0,03,01,90,A9
1301953100,00000220,false,0,8,CF,E3,88,A0,03,05,90,BB
1301963100,00000220,false,0,8,CF,E3,88,A0,03,08,90,CC
1301973100,00000220,false,0,8,D1,03,89,A0,03,06,90,DF
1301983100,00000220,false,0,8,D0,43,89,A0,03,06,90,EC
1301993000,00000220,false,0,8,CF,43,89,A0,03,06,90,FD
1302002800,00000220,false,0,8,D2,03,89,A0,03,02,90,0A
1302013000,00000220,false,0,8,D4,A3,88,A4,03,03,90,10
1302023000,00000220,false,0,8,D2,43,88,A0,03,09,90,20
1302033000,00000220,false,0,8,D2,23,88,A0,03,0C,90,35
1302043000,00000220,false,0,8,D0,83,88,A0,03,0D,90,42
1302053000,00000220,false,0,8,CE,E3,88,98,03,09,90,54
1302063000,00000220,false,0,8,CF,43,89,A0,03,04,90,6B
1302072900,00000220,false,0,8,CF,43,89,9C,03,05,90,76
1302082700,00000220,false,0,8,D0,23,89,A0,03,02,90,88
1302092900,00000220,false,0,8,D1,E3,88,A4,03,FF,8F,98
1302102900,00000220,false,0,8,D2,E3,88,A0,03,01,90,A8
1302112700,00000220,false,0,8,D1,03,89,A0,03,01,90,B8
1302122900,00000220,false,0,8,D1,03,89,A0,03,03,90,CA
1302132900,00000220,false,0,8,D3,23,89,9C,03,00,90,D7
1302142900,00000220,false,0,8,D2,23,89,A0,03,01,90,EB
1302152600,00000220,false,0,8,D1,03,89,9C,03,03,90,F6
1302162800,00000220,false,0,8,D0,C3,88,9C,03,02,90,05
1302172800,00000220,false,0,8,CE,E3,88,A0,03,00,90,15
1302182800,00000220,false,0,8,CE,23,89,9C,03,04,90,24
1302192800,00000220,false,0,8,CF,43,89,A0,03,03,90,38
1302202800,00000220,false,0,8,D0,03,89,A0,03,FF,8F,44
1302212700,00000220,false,0,8,D0,E3,88,9C,03,03,90,54
1302222800,00000220,false,0,8,CD,A3,88,A0,03,04,90,66
1302232800,00000220,false,0,8,CF,83,88,9C,03,FD,8F,7C
1302242800,00000220,false,0,8,D0,E3,88,A0,03,FB,8F,81
1302252700,00000220,false,0,8,CD,03,89,A4,03,02,90,9B
1302262700,00000220,false,0,8,CD,E3,88,A0,03,08,90,AA
1302272700,00000220,false,0,8,CD,C3,88,A0,03,09,90,BD
1302282700,00000220,false,0,8,CE,A3,88,A0,03,09,90,CC
1302292700,00000220,false,0,8,CE,A3,88,A0,03,04,90,D9
1302302700,00000220,false,0,8,CE,E3,88,A0,03,00,90,E5
1302312900,00000220,false,0,8,CD,03,89,A0,03,05,90,F8
1302322600,00000220,false,0,8,CE,43,89,A0,03,06,90,0A
1302332600,00000220,false,0,8,D0,23,89,A0,03,04,90,1A
1302342600,00000220,false,0,8,D0,03,89,A0,03,08,90,2E
1302352600,00000220,false,0,8,CF,23,89,A0,03,09,90,3E
1302362600,00000220,false,0,8,D0,43,89,9C,03,07,90,4B
1302372600,00000220,false,0,8,D0,43,89,98,03,02,90,50
1302382600,00000220,false,0,8,D1,43,89,9C,03,02,90,67
1302392600,00000220,false,0,8,CF,23,89,A0,03,01,90,76
1302402600,00000220,false,0,8,CE,03,89,9C,03,03,90,85
1302412500,00000220,false,0,8,CE,E3,88,9C,03,0A,90,9B
1302422500,00000220,false,0,8,CE,A3,88,A0,03,0D,90,A0
1302432500,00000220,false,0,8,CF,63,88,A0,03,06,90,BA
1302442500,00000220,false,0,8,D0,A3,88,9C,03,02,90,C5
1302452200,00000220,false,0,8,CF,E3,88,A0,03,01,90,D7
1302462500,00000220,false,0,8,D1,E3,88,9C,03,FF,8F,E0
1302472500,00000220,false,0,8,D0,E3,88,A0,03,01,90,F6
1302482500,00000220,false,0,8,CF,23,89,A4,03,02,90,0D
1302492400,00000220,false,0,8,D2,23,89,A0,03,01,90,1B
1302502400,00000220,false,0,8,D2,E3,88,A0,03,03,90,2A
1302512500,00000220,false,0,8,D2,E3,88,A0,03,04,90,3D
1302522400,00000220,false,0,8,D0,03,89,9C,03,05,90,49
1302532400,00000220,false,0,8,CE,23,89,A0,03,05,90,5B
1302542400,00000220,false,0,8,CD,43,89,A0,03,08,90,6D
1302552400,00000220,false,0,8,CC,03,89,9C,03,0F,90,7F
1302562400,00000220,false,0,8,CE,A3,88,A0,03,0C,90,81
1302572300,00000220,false,0,8,D0,C3,88,A0,03,05,90,9A
1302582300,00000220,false,0,8,D0,A3,88,A0,03,03,90,A8
1302592300,00000220,false,0,8,D0,C3,88,9C,03,01,90,B2
1302602300,00000220,false,0,8,D1,C3,88,A0,03,00,90,C6
1302612300,00000220,false,0,8,D1,A3,88,A0,03,01,90,D9
1302622300,00000220,false,0,8,D0,A3,88,A0,03,02,90,E9
1302632000,00000220,false,0,8,D1,C3,88,A0,03,06,90,FC
1302642200,00000220,false,0,8,D1,E3,88,98,03,05,90,05
1302652200,00000220,false,0,8,CE,23,89,A0,03,02,90,16
1302662200,00000220,false,0,8,CC,23,89,A0,03,01,90,25
1302672200,00000220,false,0,8,CD,03,89,9C,03,01,90,30
1302682000,00000220,false,0,8,CF,C3,88,9C,03,FD,8F,4C
1302692200,00000220,false,0,8,D0,63,88,A4,03,FD,8F,57
1302702200,00000220,false,0,8,CF,83,88,A0,03,F9,8F,6C
1302712200,00000220,false,0,8,D1,C3,88,A0,03,F7,8F,7C
1302722200,00000220,false,0,8,D2,A3,88,A0,03,F8,8F,8E
1302732100,00000220,false,0,8,CF,83,88,9C,03,FA,8F,9B
1302742200,00000220,false,0,8,CE,83,88,A0,03,F9,8F,AD
1302752100,00000220,false,0,8,CE,83,88,A0,03,03,90,B6
1302762100,00000220,false,0,8,CE,63,88,A0,03,06,90,CB
1302772100,00000220,false,0,8,CF,A3,88,A0,03,0C,90,D0
1302782100,00000220,false,0,8,CF,E3,88,A0,03,0E,90,E2
1302792100,00000220,false,0,8,D0,E3,88,9C,03,0A,90,FD
1302802100,00000220,false,0,8,CE,C3,88,A0,03,04,90,09
1302812000,00000220,false,0,8,CD,C3,88,A0,03,01,90,15
1302822000,00000220,false,0,8,CF,A3,88,A0,03,02,90,26
1302832000,00000220,false,0,8,CF,A3,88,98,03,03,90,31
1302842000,00000220,false,0,8,CE,C3,88,90,03,01,90,44
1302851700,00000220,false,0,8,CE,C3,88,90,03,04,90,59
1302862000,00000220,false,0,8,CC,A3,88,90,03,03,90,64
1302872000,00000220,false,0,8,CC,A3,88,90,03,03,90,74
1302882000,00000220,false,0,8,CE,E3,88,90,03,09,90,8C
1302891900,00000220,false,0,8,D0,E3,88,94,03,08,90,93
1302901700,00000220,false,0,8,D0,E3,88,90,03,03,90,A8
1302912000,00000220,false,0,8,D1,C3,88,98,03,04,90,B2
1302921900,00000220,false,0,8,D2,A3,88,94,03,07,90,C2
1302931900,00000220,false,0,8,D3,C3,88,94,03,0A,90,D6
1302941900,00000220,false,0,8,D3,03,89,94,03,04,90,E3
1302951900,00000220,false,0,8,D1,23,89,90,03,FD,8F,F5
1302961900,00000220,false,0,8,D0,03,89,94,03,FF,8F,08
1302971800,00000220,false,0,8,D0,C3,88,90,03,01,90,16
1302981800,00000220,false,0,8,CF,A3,88,90,03,08,90,2C
1302991800,00000220,false,0,8,CE,E3,88,90,03,09,90,3C
1303001800,00000220,false,0,8,CF,E3,88,94,03,07,90,41
1303012000,00000220,false,0,8,D0,C3,88,8C,03,08,90,5B
1303021800,00000220,false,0,8,CE,C3,88,90,03,04,90,69
1303031800,00000220,false,0,8,CE,C3,88,90,03,07,90,7A
1303041800,00000220,false,0,8,CE,C3,88,90,03,05,90,88
1303052000,00000220,false,0,8,CE,83,88,94,03,03,90,9A
1303061700,00000220,false,0,8,CF,83,88,98,03,01,90,AF
1303071500,00000220,false,0,8,CF,C3,88,90,03,FB,8F,BE
1303081700,00000220,false,0,8,CE,C3,88,90,03,FC,8F,CE
1303091700,00000220,false,0,8,D0,E3,88,94,03,FF,8F,D9
1303101700,00000220,false,0,8,D1,E3,88,94,03,00,90,EA
1303112000,00000220,false,0,8,D1,E3,88,90,03,FE,8F,F5
1303121700,00000220,false,0,8,D0,E3,88,98,03,01,90,0E
1303131700,00000220,false,0,8,CF,E3,88,90,03,04,90,18
1303141700,00000220,false,0,8,CF,C3,88,98,03,04,90,20
1303151600,00000220,false,0,8,CF,A3,88,94,03,04,90,3C
1303161600,00000220,false,0,8,D0,A3,88,94,03,02,90,4D
1303171600,00000220,false,0,8,D2,E3,88,90,03,00,90,59
1303181600,00000220,false,0,8,D2,03,89,90,03,00,90,68
1303191600,00000220,false,0,8,D1,03,89,94,03,FF,8F,7B
1303201300,00000220,false,0,8,D0,C3,88,90,03,FD,8F,83
1303211500,00000220,false,0,8,CF,43,89,94,03,04,90,9F
1303221500,00000220,false,0,8,CE,83,89,90,03,07,90,AD
1303231500,00000220,false,0,8,CE,23,89,94,03,02,90,BA
1303241500,00000220,false,0,8,CE,03,89,94,03,FA,8F,C3
1303251500,00000220,false,0,8,CF,E3,88,94,03,F4,8F,DD
1303261500,00000220,false,0,8,CF,83,88,94,03,F2,8F,EB
1303271500,00000220,false,0,8,CF,63,88,90,03,F6,8F,FB
1303281500,00000220,false,0,8,D2,C3,88,94,03,03,90,0E
1303291200,00000220,false,0,8,D2,E3,88,90,03,09,90,10
1303301500,00000220,false,0,8,D0,A3,88,94,03,06,90,21
1303311400,00000220,false,0,8,D1,83,88,90,03,FC,8F,33
1303321400,00000220,false,0,8,CF,83,88,90,03,FE,8F,43
1303331400,00000220,false,0,8,D0,A3,88,90,03,03,90,58
1303341400,00000220,false,0,8,D0,83,88,94,03,04,90,6F
1303351400,00000220,false,0,8,CC,63,88,94,03,06,90,7D
1303361400,00000220,false,0,8,CB,83,88,90,03,0C,90,8C
1303371100,00000220,false,0,8,CC,83,88,94,03,0B,90,90
1303380900,00000220,false,0,8,CC,A3,88,94,03,06,90,AD
1303391300,00000220,false,0,8,CC,A3,88,90,03,02,90,B5
1303401300,00000220,false,0,8,CE,C3,88,94,03,01,90,C8
1303411300,00000220,false,0,8,CD,C3,88,98,03,06,90,D0
1303421300,00000220,false,0,8,CD,A3,88,90,03,0A,90,EC
1303431300,00000220,false,0,8,CF,C3,88,94,03,07,90,F1
1303441300,00000220,false,0,8,D1,E3,88,90,03,04,90,0A
1303451200,00000220,false,0,8,D0,E3,88,94,03,01,90,1A
1303461200,00000220,false,0,8,D0,E3,88,90,03,FB,8F,21
1303471200,00000220,false,0,8,D0,E3,88,94,03,FA,8F,32
1303481200,00000220,false,0,8,D0,E3,88,94,03,FE,8F,46
1303491100,00000220,false,0,8,D2,23,89,90,03,FE,8F,57
1303501200,00000220,false,0,8,D4,03,89,94,03,FD,8F,6A
1303511000,00000220,false,0,8,D3,E3,88,90,03,FF,8F,76
1303521200,00000220,false,0,8,D2,23,89,94,03,01,90,8F
1303531100,00000220,false,0,8,D2,43,89,94,03,02,90,9E
1303541100,00000220,false,0,8,D1,03,89,98,03,FF,8F,AF
1303551100,00000220,false,0,8,D1,03,89,90,03,FA,8F,B0
1303561100,00000220,false,0,8,D1,C3,88,94,03,FB,8F,C4
1303571100,00000220,false,0,8,CE,43,88,98,03,FC,8F,D6
1303581100,00000220,false,0,8,CF,43,88,98,03,FF,8F,EA
1303590800,00000220,false,0,8,D3,23,88,94,03,06,90,F2
1303601100,00000220,false,0,8,D2,63,88,90,03,06,90,0F
1303611300,00000220,false,0,8,D1,C3,88,98,03,03,90,13
1303621100,00000220,false,0,8,D2,03,89,90,03,05,90,2F
1303631000,00000220,false,0,8,D2,03,89,98,03,06,90,36
1303641000,00000220,false,0,8,CE,E3,88,90,03,08,90,4D
1303651000,00000220,false,0,8,CE,E3,88,94,03,08,90,51
1303661000,00000220,false,0,8,CE,E3,88,94,03,05,90,6C
1303671000,00000220,false,0,8,CE,03,89,94,03,08,90,70
1303681000,00000220,false,0,8,D0,43,89,94,03,08,90,82
1303690900,00000220,false,0,8,D1,83,89,90,03,09,90,90
1303700900,00000220,false,0,8,D1,63,89,90,03,08,90,A1
1303710900,00000220,false,0,8,D0,23,89,8C,03,02,90,B4
1303720900,00000220,false,0,8,CE,E3,88,8C,03,03,90,C2
1303730900,00000220,false,0,8,CC,E3,88,8C,03,03,90,D0
1303740900,00000220,false,0,8,CE,A3,88,88,03,06,90,E3
1303750900,00000220,false,0,8,D0,83,88,8C,03,03,90,F4
1303760900,00000220,false,0,8,D2,A3,88,90,03,03,90,0A
1303770900,00000220,false,0,8,CF,03,89,90,03,06,90,1D
1303780400,00000220,false,0,8,CD,43,89,90,03,06,90,2B
1303790800,00000220,false,0,8,D1,23,89,90,03,04,90,3D
1303800800,00000220,false,0,8,D2,03,89,90,03,02,90,4A
1303810800,00000220,false,0,8,D2,03,89,90,03,06,90,5E
1303820800,00000220,false,0,8,D1,03,89,8C,03,03,90,66
1303830800,00000220,false,0,8,CF,03,89,8C,03,FF,8F,71
1303840800,00000220,false,0,8,CF,C3,88,88,03,FF,8F,8A
1303850800,00000220,false,0,8,CF,83,88,8C,03,FC,8F,9D
1303860700,00000220,false,0,8,CF,83,88,90,03,FC,8F,A1
1303870700,00000220,false,0,8,CF,C3,88,90,03,00,90,B4
1303880300,00000220,false,0,8,D0,C3,88,90,03,05,90,CA
1303890700,00000220,false,0,8,D0,E3,88,8C,03,04,90,D7
1303900700,00000220,false,0,8,D1,23,89,88,03,FF,8F,EF
1303910700,00000220,false,0,8,D4,43,89,8C,03,F8,8F,FF
1303920700,00000220,false,0,8,D5,43,89,90,03,FB,8F,07
1303930700,00000220,false,0,8,D2,03,89,8C,03,00,90,14
1303940700,00000220,false,0,8,D2,E3,88,8C,03,03,90,26
1303950600,00000220,false,0,8,D1,C3,88,90,03,04,90,3A
1303960600,00000220,false,0,8,D1,C3,88,88,03,FD,8F,4A
1303970600,00000220,false,0,8,D1,C3,88,90,03,FD,8F,52
1303980400,00000220,false,0,8,D2,03,89,90,03,01,90,6B
1303990600,00000220,false,0,8,D2,03,89,90,03,FE,8F,77
1304000600,00000220,false,0,8,CF,E3,88,90,03,FF,8F,82
1304010800,00000220,false,0,8,CF,C3,88,94,03,01,90,9B
1304020600,00000220,false,0,8,CE,E3,88,94,03,05,90,AC
1304030800,00000220,false,0,8,CD,A3,88,90,03,08,90,BA
1304040500,00000220,false,0,8,CC,83,88,94,03,0B,90,C0
1304050500,00000220,false,0,8,CC,A3,88,8C,03,08,90,D7
1304060500,00000220,false,0,8,CD,63,88,98,03,06,90,E0
1304070500,00000220,false,0,8,CD,23,88,8C,03,07,90,F7
1304080500,00000220,false,0,8,CE,43,88,90,03,08,90,0D
1304090500,00000220,false,0,8,CF,63,88,90,03,08,90,1C
1304100500,00000220,false,0,8,CF,A3,88,90,03,09,90,2F
1304110500,00000220,false,0,8,D1,E3,88,94,03,04,90,3E
1304120400,00000220,false,0,8,D2,03,89,90,03,04,90,4C
1304130400,00000220,false,0,8,D0,E3,88,90,03,05,90,5A
1304140400,00000220,false,0,8,CF,E3,88,90,03,05,90,6B
1304150400,00000220,false,0,8,D1,E3,88,94,03,02,90,7C
1304160400,00000220,false,0,8,D1,A3,88,94,03,03,90,8F
1304170400,00000220,false,0,8,D1,C3,88,90,03,04,90,9A
1304180400,00000220,false,0,8,CF,43,89,90,03,00,90,A7
1304190100,00000220,false,0,8,CF,43,89,90,03,FF,8F,B5
1304200400,00000220,false,0,8,CF,03,89,90,03,FE,8F,C2
1304210300,00000220,false,0,8,D0,23,89,8C,03,04,90,D6
1304220300,00000220,false,0,8,D0,83,89,90,03,08,90,EE
1304230300,00000220,false,0,8,CF,23,89,90,03,09,90,FE
1304240300,00000220,false,0,8,CD,03,89,94,03,0A,90,03
1304250300,00000220,false,0,8,CE,C3,88,90,03,0A,90,1F
1304260300,00000220,false,0,8,CE,E3,88,90,03,04,90,29
1304270200,00000220,false,0,8,CE,43,89,90,03,05,90,3B
1304279800,00000220,false,0,8,CF,83,89,94,03,06,90,41
1304290200,00000220,false,0,8,D0,63,89,94,03,05,90,51
1304300200,00000220,false,0,8,D1,03,89,94,03,FD,8F,69
1304310300,00000220,false,0,8,D2,C3,88,90,03,FA,8F,70
1304320200,00000220,false,0,8,D2,C3,88,90,03,FD,8F,85
1304330200,00000220,false,0,8,D2,C3,88,90,03,FB,8F,93
1304340100,00000220,false,0,8,D1,E3,88,90,03,FE,8F,A5
1304350200,00000220,false,0,8,CE,C3,88,90,03,02,90,B7
1304360100,00000220,false,0,8,CB,C3,88,8C,03,02,90,CE
1304370100,00000220,false,0,8,CC,E3,88,90,03,06,90,D9
1304380100,00000220,false,0,8,CE,03,89,90,03,06,90,EA
1304390100,00000220,false,0,8,CE,C3,88,8C,03,03,90,F2
1304400100,00000220,false,0,8,CD,A3,88,90,03,04,90,06
1304410300,00000220,false,0,8,D0,A3,88,90,03,07,90,1C
1304420100,00000220,false,0,8,D3,E3,88,90,03,08,90,20
1304430000,00000220,false,0,8,D2,C3,88,94,03,08,90,35
1304440000,00000220,false,0,8,D1,C3,88,90,03,05,90,4D
1304450000,00000220,false,0,8,D1,E3,88,8C,03,01,90,55
1304460000,00000220,false,0,8,D1,03,89,90,03,03,90,6A
1304470000,00000220,false,0,8,D0,03,89,90,03,02,90,78
1304480000,00000220,false,0,8,CF,E3,88,90,03,03,90,89
1304489900,00000220,false,0,8,CE,C3,88,8C,03,02,90,93
1304500000,00000220,false,0,8,CD,C3,88,90,03,02,90,A4
1304510000,00000220,false,0,8,D2,C3,88,90,03,06,90,BF
1304519900,00000220,false,0,8,D3,E3,88,90,03,08,90,C0
1304530000,00000220,false,0,8,D1,C3,88,90,03,07,90,DF
1304539900,00000220,false,0,8,CF,E3,88,90,03,02,90,E6
1304549900,00000220,false,0,8,CF,03,89,90,03,FF,8F,F5
1304559900,00000220,false,0,8,D1,03,89,90,03,FD,8F,05
1304569900,00000220,false,0,8,D3,E3,88,90,03,FF,8F,16
1304579600,00000220,false,0,8,D1,C3,88,90,03,02,90,28
1304589900,00000220,false,0,8,D1,C3,88,90,03,02,90,38
1304599800,00000220,false,0,8,CF,C3,88,90,03,01,90,47
1304609800,00000220,false,0,8,CE,A3,88,90,03,01,90,54
1304619800,00000220,false,0,8,CE,A3,88,90,03,05,90,68
1304629800,00000220,false,0,8,CB,C3,88,90,03,03,90,75
1304639800,00000220,false,0,8,CB,E3,88,90,03,02,90,82
1304649800,00000220,false,0,8,CC,A3,88,90,03,02,90,95
1304659800,00000220,false,0,8,CE,A3,88,90,03,07,90,AA
1304669800,00000220,false,0,8,CD,83,88,90,03,06,90,B8
1304679800,00000220,false,0,8,CC,63,88,94,03,FB,8F,C1
1304689800,00000220,false,0,8,CC,A3,88,90,03,FA,8F,DA
1304699700,00000220,false,0,8,CE,E3,88,90,03,FF,8F,E3
1304709700,00000220,false,0,8,D0,E3,88,88,03,FE,8F,FA
1304719700,00000220,false,0,8,D0,03,89,84,03,FE,8F,09
1304729700,00000220,false,0,8,D0,23,89,90,03,FF,8F,14
1304739700,00000220,false,0,8,CF,23,89,90,03,05,90,2A
1304749700,00000220,false,0,8,CD,03,89,8C,03,09,90,38
1304759600,00000220,false,0,8,CE,C3,88,90,03,09,90,4C
1304769600,00000220,false,0,8,CE,A3,88,8C,03,04,90,55
1304779600,00000220,false,0,8,CF,C3,88,90,03,01,90,67
1304789400,00000220,false,0,8,CE,E3,88,8C,03,03,90,72
1304799600,00000220,false,0,8,D0,23,89,90,03,01,90,89
1304809800,00000220,false,0,8,D2,23,89,90,03,02,90,9A
1304819600,00000220,false,0,8,D3,03,89,90,03,03,90,AC
1304829600,00000220,false,0,8,D2,03,89,90,03,07,90,B1
1304839600,00000220,false,0,8,D0,03,89,90,03,05,90,CD
1304849500,00000220,false,0,8,CE,03,89,88,03,02,90,DE
1304859500,00000220,false,0,8,CE,03,89,90,03,06,90,EA
1304869500,00000220,false,0,8,D0,E3,88,8C,03,09,90,FA
1304879300,00000220,false,0,8,CF,E3,88,90,03,0B,90,01
1304889500,00000220,false,0,8,CF,03,89,90,03,0A,90,11
1304899500,00000220,false,0,8,CF,03,89,90,03,00,90,27
1304909500,00000220,false,0,8,CF,C3,88,90,03,FC,8F,31
1304919400,00000220,false,0,8,D1,E3,88,90,03,01,90,49
1304929400,00000220,false,0,8,CF,23,89,90,03,02,90,59
1304939400,00000220,false,0,8,CE,43,89,90,03,FF,8F,62
1304949400,00000220,false,0,8,D0,23,89,90,03,FE,8F,75
1304959400,00000220,false,0,8,D1,A3,88,98,03,FE,8F,8D
1304969400,00000220,false,0,8,D1,63,88,94,03,00,90,9A
1304979100,00000220,false,0,8,D1,83,88,94,03,01,90,AD
1304989400,00000220,false,0,8,D0,C3,88,90,03,04,90,BB
1304999400,00000220,false,0,8,D0,E3,88,90,03,07,90,CC
1305009600,00000220,false,0,8,CE,23,89,90,03,09,90,DF
1305019300,00000220,false,0,8,CD,23,89,90,03,05,90,E8
1305029300,00000220,false,0,8,CE,E3,88,90,03,05,90,F8
1305039300,00000220,false,0,8,CE,C3,88,90,03,00,90,05
1305049300,00000220,false,0,8,CD,03,89,90,03,FC,8F,1E
1305059300,00000220,false,0,8,CE,E3,88,90,03,00,90,25
1305069300,00000220,false,0,8,CF,A3,88,90,03,00,90,34
1305078800,00000220,false,0,8,D1,A3,88,94,03,FB,8F,44
1305089200,00000220,false,0,8,D2,83,88,90,03,FD,8F,55
1305099200,00000220,false,0,8,D1,83,88,8C,03,05,90,69
1305109200,00000220,false,0,8,D1,A3,88,90,03,04,90,7A
1305119200,00000220,false,0,8,D1,E3,88,8C,03,FE,8F,81
1305129200,00000220,false,0,8,D2,23,89,90,03,FC,8F,95
1305139200,00000220,false,0,8,D0,03,89,90,03,FC,8F,A3
1305149200,00000220,false,0,8,D1,E3,88,90,03,FD,8F,B2
1305159200,00000220,false,0,8,D2,A3,88,90,03,FF,8F,C7
1305169100,00000220,false,0,8,D0,63,88,90,03,FD,8F,D3
1305178900,00000220,false,0,8,CF,C3,88,90,03,FC,8F,E1
1305189100,00000220,false,0,8,D2,23,89,8C,03,FE,8F,F3
1305199100,00000220,false,0,8,D4,E3,88,90,03,FF,8F,09
1305209100,00000220,false,0,8,D3,C3,88,90,03,03,90,1D
1305219100,00000220,false,0,8,D0,03,89,8C,03,07,90,2B
1305229100,00000220,false,0,8,CF,03,89,8C,03,00,90,33
1305239100,00000220,false,0,8,D0,03,89,8C,03,FC,8F,4F
1305249000,00000220,false,0,8,D0,E3,88,8C,03,FD,8F,5F
1305259000,00000220,false,0,8,D1,E3,88,90,03,FF,8F,64
1305269000,00000220,false,0,8,D0,03,89,8C,03,FC,8F,7F
1305278500,00000220,false,0,8,CE,C3,88,90,03,FB,8F,8F
1305289000,00000220,false,0,8,CE,83,88,90,03,FE,8F,90
1305299000,00000220,false,0,8,CC,A3,88,94,03,00,90,A7
1305309000,00000220,false,0,8,CD,23,89,90,03,FE,8F,B0
1305319000,00000220,false,0,8,CE,43,89,90,03,FF,8F,C2
1305329000,00000220,false,0,8,CE,03,89,90,03,04,90,D8
1305338900,00000220,false,0,8,CD,E3,88,8C,03,05,90,E5
1305348900,00000220,false,0,8,CD,E3,88,88,03,05,90,F1
1305358900,00000220,false,0,8,CE,E3,88,88,03,05,90,00
1305368900,00000220,false,0,8,CF,C3,88,88,03,07,90,15
1305378700,00000220,false,0,8,CF,C3,88,88,03,02,90,2E
1305388900,00000220,false,0,8,D1,C3,88,88,03,FD,8F,3A
1305398900,00000220,false,0,8,D3,E3,88,88,03,FF,8F,4E
1305409100,00000220,false,0,8,D3,03,89,88,03,00,90,53
1305418800,00000220,false,0,8,D2,E3,88,90,03,01,90,68
1305428800,00000220,false,0,8,D0,E3,88,88,03,06,90,75
1305438800,00000220,false,0,8,D0,E3,88,88,03,06,90,85
1305448800,00000220,false,0,8,D1,E3,88,8C,03,03,90,97
1305458800,00000220,false,0,8,D1,E3,88,88,03,01,90,A1
1305468800,00000220,false,0,8,D3,A3,88,90,03,01,90,BB
1305478500,00000220,false,0,8,D2,E3,88,88,03,FE,8F,CC
1305488700,00000220,false,0,8,D2,E3,88,90,03,03,90,DA
1305498700,00000220,false,0,8,D1,C3,88,90,03,07,90,EF
1305508700,00000220,false,0,8,D3,E3,88,8C,03,06,90,FA
1305518700,00000220,false,0,8,D1,C3,88,8C,03,04,90,06
1305528700,00000220,false,0,8,D0,E3,88,8C,03,03,90,14
1305538700,00000220,false,0,8,D0,23,89,8C,03,02,90,24
1305548700,00000220,false,0,8,D0,E3,88,90,03,02,90,39
1305558700,00000220,false,0,8,D1,C3,88,90,03,04,90,4A
1305568600,00000220,false,0,8,D2,E3,88,90,03,09,90,50
1305578200,00000220,false,0,8,D4,03,89,8C,03,06,90,6C
1305588600,00000220,false,0,8,D5,E3,88,88,03,06,90,78
1305598600,00000220,false,0,8,D3,E3,88,8C,03,06,90,8A
1305608600,00000220,false,0,8,D2,E3,88,90,03,07,90,9E
1305618600,00000220,false,0,8,D2,23,89,8C,03,0B,90,A1
1305628600,00000220,false,0,8,D4,E3,88,90,03,0D,90,B6
1305638600,00000220,false,0,8,D3,E3,88,90,03,06,90,CE
1305648600,00000220,false,0,8,D0,23,89,90,03,FE,8F,D5
1305658500,00000220,false,0,8,CE,43,89,8C,03,FD,8F,EC
1305668500,00000220,false,0,8,D0,23,89,90,03,FE,8F,F5
1305678500,00000220,false,0,8,D3,03,89,88,03,00,90,03
1305688500,00000220,false,0,8,D2,C3,88,88,03,03,90,12
1305698500,00000220,false,0,8,D1,A3,88,90,03,01,90,29
1305708500,00000220,false,0,8,D2,C3,88,88,03,FE,8F,3C
1305718500,00000220,false,0,8,D2,A3,88,90,03,02,90,4B
1305728400,00000220,false,0,8,D2,C3,88,8C,03,05,90,58
1305738400,00000220,false,0,8,D4,83,88,8C,03,00,90,67
1305748400,00000220,false,0,8,D5,A3,88,90,03,FD,8F,76
1305758400,00000220,false,0,8,D4,23,89,88,03,02,90,84
1305768400,00000220,false,0,8,D3,23,89,8C,03,01,90,96
1305778200,00000220,false,0,8,D3,23,89,88,03,00,90,A3
1305788400,00000220,false,0,8,D3,03,89,90,03,04,90,BF
1305798400,00000220,false,0,8,D2,A3,88,90,03,FF,8F,C7
1305808100,00000220,false,0,8,D1,A3,88,8C,03,02,90,D4
1305818300,00000220,false,0,8,D2,C3,88,90,03,03,90,EA
1305828300,00000220,false,0,8,D0,03,89,8C,03,FF,8F,F0
1305838300,00000220,false,0,8,D0,E3,88,8C,03,FF,8F,01
1305848300,00000220,false,0,8,D0,E3,88,90,03,00,90,17
1305858300,00000220,false,0,8,CF,23,89,90,03,FF,8F,25
1305868300,00000220,false,0,8,CF,23,89,90,03,FC,8F,30
1305877800,00000220,false,0,8,CF,03,89,90,03,FB,8F,41
1305888300,00000220,false,0,8,CE,E3,88,90,03,FF,8F,53
1305898300,00000220,false,0,8,CF,E3,88,90,03,06,90,6A
1305908300,00000220,false,0,8,D1,03,89,90,03,04,90,7D
1305918000,00000220,false,0,8,D2,43,89,90,03,00,90,88
1305928200,00000220,false,0,8,D2,43,89,8C,03,00,90,94
1305938200,00000220,false,0,8,D0,E3,88,90,03,06,90,AD
1305948200,00000220,false,0,8,CF,C3,88,90,03,07,90,BD
1305958200,00000220,false,0,8,CD,03,89,90,03,0A,90,CF
1305968200,00000220,false,0,8,CE,E3,88,90,03,06,90,DB
1305978200,00000220,false,0,8,CF,83,88,90,03,FF,8F,E2
1305988100,00000220,false,0,8,D0,A3,88,8C,03,FE,8F,FE
1305998100,00000220,false,0,8,D2,A3,88,90,03,01,90,08
1306007900,00000220,false,0,8,D2,C3,88,94,03,04,90,11
1306018100,00000220,false,0,8,CF,E3,88,90,03,04,90,28
1306028100,00000220,false,0,8,CF,E3,88,90,03,04,90,38
1306038100,00000220,false,0,8,D1,23,89,90,03,03,90,4A
1306048100,00000220,false,0,8,D2,43,89,90,03,02,90,5A
1306058000,00000220,false,0,8,D2,23,89,94,03,05,90,63
1306068000,00000220,false,0,8,D2,03,89,90,03,06,90,7E
1306077800,00000220,false,0,8,D3,23,89,8C,03,01,90,86
1306088000,00000220,false,0,8,D0,C3,88,90,03,01,90,96
1306098000,00000220,false,0,8,D0,E3,88,8C,03,04,90,A7
1306107800,00000220,false,0,8,CD,E3,88,90,03,06,90,B8
1306118000,00000220,false,0,8,CD,E3,88,90,03,05,90,C9
1306128000,00000220,false,0,8,CF,03,89,90,03,02,90,D9
1306137900,00000220,false,0,8,D0,03,89,90,03,06,90,EC
1306147900,00000220,false,0,8,CF,E3,88,94,03,02,90,FA
1306157900,00000220,false,0,8,CE,C3,88,90,03,FE,8F,00
1306167900,00000220,false,0,8,CD,E3,88,90,03,03,90,17
1306177900,00000220,false,0,8,CD,C3,88,8C,03,03,90,23
1306187600,00000220,false,0,8,CF,C3,88,8C,03,FE,8F,3F
1306197900,00000220,false,0,8,D1,83,88,90,03,FF,8F,44
1306208100,00000220,false,0,8,D0,A3,88,90,03,0A,90,51
1306217900,00000220,false,0,8,CE,C3,88,8C,03,12,90,63
1306227800,00000220,false,0,8,CD,A3,88,90,03,0C,90,7E
1306237800,00000220,false,0,8,D0,E3,88,90,03,05,90,8A
1306247800,00000220,false,0,8,D0,03,89,8C,03,FF,8F,90
1306257800,00000220,false,0,8,D0,03,89,90,03,FE,8F,A5
1306267800,00000220,false,0,8,D1,E3,88,8C,03,03,90,B7
1306277300,00000220,false,0,8,D1,E3,88,90,03,03,90,CB
1306287800,00000220,false,0,8,CF,A3,88,8C,03,07,90,D9
1306297800,00000220,false,0,8,CF,83,88,88,03,09,90,E7
1306307800,00000220,false,0,8,D3,83,88,90,03,03,90,FD
1306317700,00000220,false,0,8,D3,C3,88,90,03,03,90,0D
1306327700,00000220,false,0,8,D3,C3,88,90,03,03,90,1D
1306337700,00000220,false,0,8,D3,83,88,94,03,06,90,22
1306347700,00000220,false,0,8,D1,83,88,90,03,02,90,38
1306357400,00000220,false,0,8,D1,63,88,94,03,03,90,4F
1306367700,00000220,false,0,8,D0,63,88,88,03,09,90,56
1306377400,00000220,false,0,8,CF,E3,88,8C,03,09,90,6B
1306387600,00000220,false,0,8,CF,E3,88,90,03,08,90,7C
1306397600,00000220,false,0,8,CF,A3,88,90,03,09,90,8F
1306407800,00000220,false,0,8,CD,83,88,90,03,06,90,98
1306417600,00000220,false,0,8,CC,C3,88,90,03,05,90,A6
1306427600,00000220,false,0,8,CD,C3,88,88,03,07,90,B3
1306437600,00000220,false,0,8,CE,E3,88,90,03,01,90,C4
1306447600,00000220,false,0,8,D1,23,89,90,03,F8,8F,DE
1306457600,00000220,false,0,8,D2,43,89,90,03,FE,8F,E7
1306467600,00000220,false,0,8,CE,23,89,8C,03,02,90,F2
1306477100,00000220,false,0,8,CD,03,89,90,03,01,90,04
1306487500,00000220,false,0,8,CE,03,89,90,03,03,90,19
1306497500,00000220,false,0,8,CD,23,89,90,03,FF,8F,23
1306507500,00000220,false,0,8,CF,03,89,90,03,FC,8F,30
1306517500,00000220,false,0,8,D1,C3,88,90,03,02,90,48
1306527500,00000220,false,0,8,D1,C3,88,90,03,02,90,58
1306537500,00000220,false,0,8,D0,C3,88,90,03,03,90,68
1306547400,00000220,false,0,8,CE,A3,88,8C,03,FE,8F,7C
1306557400,00000220,false,0,8,CE,C3,88,8C,03,01,90,80
1306567400,00000220,false,0,8,CE,C3,88,8C,03,06,90,97
1306577400,00000220,false,0,8,CD,83,88,8C,03,08,90,A6
1306587400,00000220,false,0,8,CE,83,88,90,03,04,90,B9
1306597400,00000220,false,0,8,D0,C3,88,90,03,04,90,CB
1306607100,00000220,false,0,8,D2,E3,88,90,03,04,90,DD
1306617400,00000220,false,0,8,D2,E3,88,94,03,04,90,E1
1306627400,00000220,false,0,8,D0,83,88,8C,03,06,90,F9
1306637400,00000220,false,0,8,CE,83,88,8C,03,09,90,08
1306647300,00000220,false,0,8,CC,83,88,90,03,07,90,18
1306657300,00000220,false,0,8,CB,C3,88,90,03,FF,8F,2E
1306667300,00000220,false,0,8,CD,03,89,90,03,01,90,34
1306677300,00000220,false,0,8,CD,A3,88,8C,03,02,90,40
1306687300,00000220,false,0,8,CE,A3,88,90,03,01,90,54
1306697300,00000220,false,0,8,CE,E3,88,90,03,04,90,69
1306707300,00000220,false,0,8,CF,03,89,90,03,05,90,7A
1306717200,00000220,false,0,8,D1,C3,88,8C,03,05,90,89
1306727200,00000220,false,0,8,CF,C3,88,90,03,0B,90,91
1306737200,00000220,false,0,8,CE,23,89,90,03,09,90,AF
1306747200,00000220,false,0,8,CE,E3,88,88,03,08,90,B5
1306757200,00000220,false,0,8,CE,A3,88,8C,03,06,90,C7
1306767200,00000220,false,0,8,CE,C3,88,90,03,01,90,D4
1306777200,00000220,false,0,8,CD,E3,88,90,03,FF,8F,E0
1306786900,00000220,false,0,8,CD,E3,88,88,03,07,90,F3
1306797100,00000220,false,0,8,D0,E3,88,90,03,0A,90,01
1306806900,00000220,false,0,8,D0,A3,88,90,03,06,90,1D
1306817100,00000220,false,0,8,CF,A3,88,90,03,05,90,2B
1306827100,00000220,false,0,8,CE,C3,88,90,03,03,90,36
1306837100,00000220,false,0,8,CF,63,88,88,03,01,90,4F
1306847100,00000220,false,0,8,D1,A3,88,8C,03,FF,8F,50
1306857100,00000220,false,0,8,CF,E3,88,90,03,03,90,69
1306867100,00000220,false,0,8,D0,83,88,8C,03,0C,90,7F
1306877100,00000220,false,0,8,D2,83,88,90,03,09,90,80
1306887000,00000220,false,0,8,D1,A3,88,8C,03,05,90,99
1306897000,00000220,false,0,8,CE,C3,88,90,03,01,90,A4
1306906600,00000220,false,0,8,CD,C3,88,90,03,FF,8F,B0
1306917000,00000220,false,0,8,CF,C3,88,8C,03,01,90,C3
1306927000,00000220,false,0,8,D0,E3,88,8C,03,04,90,D7
1306937000,00000220,false,0,8,CF,E3,88,90,03,06,90,EA
1306946900,00000220,false,0,8,D0,E3,88,8C,03,02,90,F5
1306956900,00000220,false,0,8,D0,E3,88,90,03,01,90,06
1306966900,00000220,false,0,8,D0,E3,88,90,03,05,90,1A
1306976700,00000220,false,0,8,CE,03,89,90,03,04,90,28
1306986900,00000220,false,0,8,D0,23,89,90,03,FF,8F,34
1306996900,00000220,false,0,8,D4,43,89,8C,03,FD,8F,42
1307006900,00000220,false,0,8,D3,23,89,90,03,02,90,5D
1307016900,00000220,false,0,8,D1,03,89,90,03,02,90,6B
1307026900,00000220,false,0,8,D1,E3,88,90,03,FE,8F,75
1307036800,00000220,false,0,8,D0,C3,88,90,03,FE,8F,82
1307046800,00000220,false,0,8,CF,A3,88,90,03,05,90,9B
1307056800,00000220,false,0,8,D1,83,88,8C,03,07,90,AB
1307066800,00000220,false,0,8,D0,83,88,8C,03,05,90,B6
1307076300,00000220,false,0,8,D1,C3,88,90,03,04,90,CA
1307086600,00000220,false,0,8,D3,E3,88,90,03,07,90,D1
1307096500,00000220,false,0,8,D2,A3,88,88,03,07,90,E6
1307106700,00000220,false,0,8,D0,A3,88,8C,03,08,90,FB
1307116700,00000220,false,0,8,CE,E3,88,8C,03,08,90,09
1307126700,00000220,false,0,8,CF,03,89,90,03,03,90,18
1307136700,00000220,false,0,8,CF,E3,88,8C,03,03,90,25
1307146700,00000220,false,0,8,CE,C3,88,8C,03,00,90,31
1307156700,00000220,false,0,8,CF,A3,88,8C,03,01,90,43
1307166700,00000220,false,0,8,D1,83,88,88,03,05,90,55
1307176500,00000220,false,0,8,D3,C3,88,90,03,06,90,6E
1307186700,00000220,false,0,8,D3,C3,88,8C,03,08,90,7C
1307196700,00000220,false,0,8,D2,C3,88,90,03,07,90,8E
1307206800,00000220,false,0,8,D1,A3,88,8C,03,04,90,96
1307216600,00000220,false,0,8,D0,83,88,90,03,03,90,A8
1307226600,00000220,false,0,8,CF,A3,88,90,03,FF,8F,B2
1307236600,00000220,false,0,8,CD,E3,88,90,03,00,90,C2
1307246600,00000220,false,0,8,CE,E3,88,8C,03,01,90,D0
1307256600,00000220,false,0,8,CF,E3,88,8C,03,04,90,E4
1307266600,00000220,false,0,8,D0,23,89,88,03,07,90,F7
1307276300,00000220,false,0,8,D1,03,89,8C,03,0A,90,0F
1307286500,00000220,false,0,8,D1,03,89,90,03,05,90,1C
1307296500,00000220,false,0,8,CF,C3,88,90,03,FF,8F,22
1307306500,00000220,false,0,8,D0,A3,88,90,03,FC,8F,30
1307316500,00000220,false,0,8,D0,A3,88,90,03,02,90,49
1307326500,00000220,false,0,8,D0,A3,88,90,03,05,90,5A
1307336500,00000220,false,0,8,CE,C3,88,94,03,FD,8F,65
1307346500,00000220,false,0,8,CE,C3,88,8C,03,FB,8F,7B
1307356500,00000220,false,0,8,CF,C3,88,8C,03,FD,8F,8C
1307366400,00000220,false,0,8,CD,C3,88,90,03,02,90,94
1307376200,00000220,false,0,8,CE,03,89,90,03,02,90,A6
1307386200,00000220,false,0,8,CF,23,89,90,03,01,90,B6
1307396400,00000220,false,0,8,CD,23,89,88,03,01,90,CC
1307406400,00000220,false,0,8,CD,03,89,90,03,01,90,D4
1307416400,00000220,false,0,8,D0,03,89,90,03,06,90,EC
1307426400,00000220,false,0,8,D0,E3,88,90,03,08,90,FF
1307436400,00000220,false,0,8,D1,C3,88,90,03,03,90,0B
1307446300,00000220,false,0,8,D0,A3,88,8C,03,00,90,13
1307456300,00000220,false,0,8,CF,A3,88,8C,03,FF,8F,2E
1307466300,00000220,false,0,8,CE,C3,88,90,03,02,90,37
1307476100,00000220,false,0,8,D0,C3,88,8C,03,05,90,46
1307486300,00000220,false,0,8,D1,C3,88,90,03,09,90,51
1307496300,00000220,false,0,8,D1,C3,88,90,03,06,90,6C
1307506500,00000220,false,0,8,D1,E3,88,90,03,00,90,76
1307516300,00000220,false,0,8,D0,03,89,90,03,FC,8F,83
1307526300,00000220,false,0,8,CF,23,89,90,03,FD,8F,93
1307536000,00000220,false,0,8,CD,E3,88,90,03,FE,8F,A1
1307546200,00000220,false,0,8,CC,A3,88,90,03,02,90,B5
1307556200,00000220,false,0,8,CC,C3,88,8C,03,07,90,C4
1307566200,00000220,false,0,8,D0,E3,88,90,03,04,90,DB
1307576000,00000220,false,0,8,D0,03,89,8C,03,01,90,E5
1307586200,00000220,false,0,8,CF,43,89,94,03,00,90,FB
1307596200,00000220,false,0,8,CF,23,89,90,03,FD,8F,03
1307606100,00000220,false,0,8,CF,C3,88,90,03,FC,8F,11
1307616100,00000220,false,0,8,CF,A3,88,90,03,01,90,27
1307626100,00000220,false,0,8,D1,03,89,8C,03,09,90,3C
1307636100,00000220,false,0,8,D2,03,89,94,03,10,90,4C
1307646100,00000220,false,0,8,D1,C3,88,8C,03,10,90,52
1307656100,00000220,false,0,8,CE,C3,88,8C,03,0B,90,6A
1307666100,00000220,false,0,8,CB,A3,88,90,03,01,90,73
1307675800,00000220,false,0,8,CC,83,88,8C,03,FC,8F,88
1307686000,00000220,false,0,8,CE,A3,88,90,03,01,90,94
1307696000,00000220,false,0,8,CE,A3,88,90,03,09,90,AC
1307706300,00000220,false,0,8,CF,C3,88,90,03,0A,90,BE
1307716000,00000220,false,0,8,CE,C3,88,90,03,05,90,C8
1307726000,00000220,false,0,8,CD,E3,88,8C,03,FE,8F,DD
1307736000,00000220,false,0,8,CD,03,89,90,03,FD,8F,E1
1307746000,00000220,false,0,8,CF,03,89,90,03,02,90,F9
1307755900,00000220,false,0,8,CF,03,89,88,03,06,90,05
1307766000,00000220,false,0,8,CF,43,89,90,03,0A,90,11
1307775700,00000220,false,0,8,D0,43,89,90,03,0A,90,20
1307785900,00000220,false,0,8,D2,03,89,90,03,07,90,31
1307795900,00000220,false,0,8,D0,E3,88,88,03,06,90,45
1307806100,00000220,false,0,8,D0,E3,88,8C,03,05,90,56
1307815900,00000220,false,0,8,D1,E3,88,8C,03,08,90,6A
1307825900,00000220,false,0,8,D1,E3,88,90,03,05,90,7D
1307835900,00000220,false,0,8,D1,03,89,90,03,FF,8F,87
1307845800,00000220,false,0,8,D0,03,89,8C,03,FF,8F,90
1307855800,00000220,false,0,8,CE,C3,88,8C,03,03,90,A2
1307865800,00000220,false,0,8,CF,E3,88,8C,03,0A,90,BA
1307875600,00000220,false,0,8,D1,23,89,90,03,0E,90,C7
1307885800,00000220,false,0,8,D4,63,89,90,03,08,90,D2
1307895800,00000220,false,0,8,D4,63,89,90,03,05,90,E1
1307906000,00000220,false,0,8,D3,03,89,90,03,05,90,FE
1307915800,00000220,false,0,8,D0,E3,88,90,03,01,90,06
1307925800,00000220,false,0,8,CE,E3,88,90,03,FF,8F,13
1307935700,00000220,false,0,8,CE,E3,88,8C,03,FB,8F,2B
1307945700,00000220,false,0,8,CF,C3,88,8C,03,F9,8F,38
1307955700,00000220,false,0,8,D0,A3,88,90,03,FA,8F,4E
1307965700,00000220,false,0,8,D0,A3,88,90,03,FF,8F,55
1307975500,00000220,false,0,8,D1,A3,88,8C,03,07,90,6B
1307985400,00000220,false,0,8,D1,A3,88,90,03,0B,90,73
1307995700,00000220,false,0,8,D3,C3,88,90,03,09,90,83
1308005600,00000220,false,0,8,D5,E3,88,90,03,02,90,9C
1308015600,00000220,false,0,8,D5,C3,88,8C,03,04,90,AA
1308025600,00000220,false,0,8,D1,A3,88,8C,03,03,90,B7
1308035600,00000220,false,0,8,CD,A3,88,8C,03,FE,8F,CD
1308045600,00000220,false,0,8,CD,A3,88,90,03,01,90,D5
1308055600,00000220,false,0,8,CE,63,88,90,03,06,90,EB
1308065600,00000220,false,0,8,D0,83,88,8C,03,08,90,FB
1308075400,00000220,false,0,8,D1,83,88,90,03,06,90,0C
1308085600,00000220,false,0,8,D1,A3,88,8C,03,04,90,16
1308095600,00000220,false,0,8,CF,A3,88,90,03,08,90,2C
1308105600,00000220,false,0,8,CE,C3,88,90,03,03,90,36
1308115500,00000220,false,0,8,CE,E3,88,90,03,01,90,44
1308125500,00000220,false,0,8,CC,03,89,90,03,03,90,57
1308135500,00000220,false,0,8,CC,E3,88,94,03,03,90,68
1308145500,00000220,false,0,8,D0,E3,88,90,03,FF,8F,75
1308155500,00000220,false,0,8,D0,E3,88,88,03,FC,8F,88
1308165500,00000220,false,0,8,CD,03,89,90,03,FC,8F,9E
1308175200,00000220,false,0,8,CA,23,89,90,03,00,90,A0
1308185400,00000220,false,0,8,CA,03,89,8C,03,02,90,BE
1308195400,00000220,false,0,8,CD,E3,88,90,03,01,90,C5
1308205400,00000220,false,0,8,CD,E3,88,88,03,04,90,DE
1308215400,00000220,false,0,8,CD,03,89,90,03,08,90,ED
1308225400,00000220,false,0,8,CE,23,89,8C,03,0C,90,FC
1308235400,00000220,false,0,8,CF,C3,88,90,03,08,90,0C
1308245400,00000220,false,0,8,CF,C3,88,94,03,FF,8F,16
1308255300,00000220,false,0,8,D0,A3,88,8C,03,00,90,23
1308265300,00000220,false,0,8,D2,83,88,90,03,02,90,3B
1308275100,00000220,false,0,8,D4,A3,88,90,03,05,90,4E
1308285300,00000220,false,0,8,D2,C3,88,8C,03,03,90,56
1308295300,00000220,false,0,8,CF,03,89,90,03,FF,8F,65
1308305300,00000220,false,0,8,CC,C3,88,94,03,FE,8F,72
1308315300,00000220,false,0,8,CB,A3,88,8C,03,02,90,8E
1308325300,00000220,false,0,8,CC,A3,88,90,03,03,90,94
1308335300,00000220,false,0,8,CC,A3,88,8C,03,07,90,A4
1308345200,00000220,false,0,8,CF,C3,88,90,03,0B,90,B1
1308355200,00000220,false,0,8,D1,E3,88,90,03,07,90,CF
1308365200,00000220,false,0,8,CF,03,89,90,03,FE,8F,D2
1308375000,00000220,false,0,8,CD,E3,88,90,03,FE,8F,E1
1308385200,00000220,false,0,8,D0,C3,88,90,03,00,90,F7
1308395200,00000220,false,0,8,D0,C3,88,90,03,FE,8F,02
1308405400,00000220,false,0,8,CF,C3,88,90,03,FE,8F,13
1308415100,00000220,false,0,8,D0,E3,88,8C,03,03,90,24
1308425100,00000220,false,0,8,D0,E3,88,88,03,02,90,31
1308434900,00000220,false,0,8,D1,03,89,90,03,01,90,48
1308445100,00000220,false,0,8,D1,23,89,88,03,04,90,55
1308455100,00000220,false,0,8,D1,43,89,8C,03,06,90,6B
1308465100,00000220,false,0,8,CF,63,89,88,03,05,90,72
1308474900,00000220,false,0,8,CF,43,89,88,03,01,90,8E
1308485000,00000220,false,0,8,D1,43,89,88,03,FC,8F,9A
1308495100,00000220,false,0,8,D0,43,89,90,03,FD,8F,A2
1308505100,00000220,false,0,8,D0,43,89,90,03,07,90,BF
1308515000,00000220,false,0,8,D0,63,89,90,03,07,90,CF
1308525000,00000220,false,0,8,D0,43,89,8C,03,08,90,DA
1308535000,00000220,false,0,8,D1,03,89,90,03,09,90,E0
1308545000,00000220,false,0,8,D1,E3,88,88,03,06,90,F4
1308555000,00000220,false,0,8,CF,E3,88,90,03,03,90,09
1308565000,00000220,false,0,8,D0,E3,88,90,03,06,90,1D
1308574700,00000220,false,0,8,D1,23,89,88,03,03,90,22
1308585000,00000220,false,0,8,D1,23,89,90,03,FF,8F,37
1308594900,00000220,false,0,8,CF,E3,88,8C,03,FD,8F,4C
1308605200,00000220,false,0,8,CE,A3,88,8C,03,F7,8F,57
1308614900,00000220,false,0,8,CF,E3,88,88,03,FA,8F,67
1308624900,00000220,false,0,8,CF,E3,88,88,03,FE,8F,7B
1308634900,00000220,false,0,8,D1,E3,88,8C,03,00,90,82
1308644900,00000220,false,0,8,D1,E3,88,8C,03,02,90,94
1308654900,00000220,false,0,8,D0,03,89,8C,03,FD,8F,AE
1308664800,00000220,false,0,8,D0,03,89,88,03,01,90,B1
1308674600,00000220,false,0,8,CE,E3,88,8C,03,02,90,C3
1308684800,00000220,false,0,8,CE,E3,88,90,03,02,90,D7
1308694800,00000220,false,0,8,CD,23,89,8C,03,00,90,E1
1308704800,00000220,false,0,8,CC,03,89,8C,03,FF,8F,FC
1308714800,00000220,false,0,8,CC,E3,88,8C,03,05,90,02
1308724800,00000220,false,0,8,CE,E3,88,88,03,04,90,11
1308734800,00000220,false,0,8,D0,E3,88,90,03,02,90,29
1308744800,00000220,false,0,8,D0,C3,88,8C,03,03,90,34
1308754700,00000220,false,0,8,D0,E3,88,88,03,FC,8F,48
1308764700,00000220,false,0,8,CF,E3,88,8C,03,FA,8F,5B
1308774500,00000220,false,0,8,D0,A3,88,88,03,02,90,61
1308784700,00000220,false,0,8,D2,A3,88,90,03,08,90,71
1308794700,00000220,false,0,8,D3,03,89,90,03,05,90,8E
1308804400,00000220,false,0,8,D2,A3,88,90,03,FD,8F,95
1308814700,00000220,false,0,8,D1,A3,88,8C,03,00,90,A2
1308824700,00000220,false,0,8,D0,C3,88,88,03,02,90,B1
1308834600,00000220,false,0,8,D0,C3,88,88,03,FE,8F,CA
1308844600,00000220,false,0,8,D1,A3,88,90,03,FD,8F,D2
1308854600,00000220,false,0,8,D2,83,88,88,03,FA,8F,E8
1308864600,00000220,false,0,8,D0,C3,88,90,03,00,90,F7
1308874400,00000220,false,0,8,CF,43,89,88,03,04,90,03
1308884600,00000220,false,0,8,CF,E3,88,90,03,00,90,14
1308894500,00000220,false,0,8,D0,A3,88,88,03,FD,8F,2B
1308904800,00000220,false,0,8,D0,C3,88,88,03,00,90,3F
1308914500,00000220,false,0,8,D0,C3,88,90,03,05,90,4A
1308924500,00000220,false,0,8,CD,C3,88,90,03,08,90,5A
1308934500,00000220,false,0,8,CC,E3,88,8C,03,06,90,65
1308944500,00000220,false,0,8,CD,E3,88,8C,03,02,90,70
1308954500,00000220,false,0,8,CD,E3,88,90,03,05,90,89
1308964500,00000220,false,0,8,CE,23,89,90,03,0A,90,9E
1308974300,00000220,false,0,8,CF,C3,88,90,03,08,90,AC
1308984700,00000220,false,0,8,CF,63,88,90,03,07,90,BD
1308994400,00000220,false,0,8,D0,E3,88,8C,03,02,90,C5
1309004200,00000220,false,0,8,D1,43,89,90,03,FF,8F,D7
1309014400,00000220,false,0,8,D1,43,89,88,03,FF,8F,EF
1309024400,00000220,false,0,8,D0,43,89,8C,03,00,90,F2
1309034100,00000220,false,0,8,D0,43,89,90,03,01,90,09
1309044400,00000220,false,0,8,D1,03,89,90,03,FF,8F,17
1309054400,00000220,false,0,8,D2,C3,88,88,03,04,90,25
1309064300,00000220,false,0,8,D3,A3,88,88,03,05,90,37
1309074100,00000220,false,0,8,D2,A3,88,8C,03,03,90,46
1309084300,00000220,false,0,8,D2,C3,88,8C,03,00,90,55
1309094300,00000220,false,0,8,D1,E3,88,8C,03,FD,8F,6E
1309104600,00000220,false,0,8,D0,E3,88,8C,03,FD,8F,7F
1309114300,00000220,false,0,8,CE,C3,88,8C,03,01,90,80
1309124300,00000220,false,0,8,D0,C3,88,8C,03,FF,8F,91
1309134200,00000220,false,0,8,D3,C3,88,8C,03,FC,8F,A1
1309144300,00000220,false,0,8,D4,03,89,88,03,FE,8F,B1
1309154200,00000220,false,0,8,D2,43,89,90,03,02,90,CA
1309164200,00000220,false,0,8,D0,03,89,90,03,03,90,DB
1309174000,00000220,false,0,8,D2,E3,88,8C,03,05,90,E8
1309184200,00000220,false,0,8,D2,83,88,90,03,05,90,FC
1309194200,00000220,false,0,8,D0,63,88,94,03,00,90,0B
1309204400,00000220,false,0,8,CF,C3,88,94,03,FE,8F,17
1309214200,00000220,false,0,8,CE,23,89,90,03,FF,8F,22
1309224100,00000220,false,0,8,D0,E3,88,94,03,FC,8F,34
1309234100,00000220,false,0,8,D1,C3,88,98,03,F8,8F,47
1309244100,00000220,false,0,8,D0,E3,88,94,03,01,90,5A
1309254100,00000220,false,0,8,D0,C3,88,90,03,03,90,68
1309264100,00000220,false,0,8,D0,A3,88,90,03,01,90,76
1309273900,00000220,false,0,8,D2,63,88,94,03,00,90,8D
1309284100,00000220,false,0,8,D3,63,88,94,03,01,90,9F
1309294100,00000220,false,0,8,D3,83,88,90,03,FF,8F,A6
1309303900,00000220,false,0,8,D2,A3,88,90,03,03,90,BA
1309314000,00000220,false,0,8,D1,A3,88,98,03,01,90,C1
1309324000,00000220,false,0,8,D1,E3,88,90,03,00,90,D6
1309334000,00000220,false,0,8,D0,03,89,90,03,02,90,E8
1309344000,00000220,false,0,8,CD,A3,88,98,03,FF,8F,F8
1309354000,00000220,false,0,8,CB,A3,88,98,03,02,90,0A
1309364000,00000220,false,0,8,CD,E3,88,90,03,0A,90,1C
1309373800,00000220,false,0,8,CF,03,89,98,03,08,90,27
1309383900,00000220,false,0,8,D1,03,89,94,03,01,90,3C
1309394000,00000220,false,0,8,D4,E3,88,90,03,FD,8F,47
1309403700,00000220,false,0,8,D4,03,89,94,03,FA,8F,59
1309413900,00000220,false,0,8,D2,E3,88,90,03,FD,8F,65
1309423900,00000220,false,0,8,CF,C3,88,94,03,02,90,7A
1309433900,00000220,false,0,8,CE,A3,88,90,03,00,90,85
1309443900,00000220,false,0,8,CE,A3,88,90,03,00,90,95
1309453900,00000220,false,0,8,CD,C3,88,94,03,FE,8F,A5
1309463800,00000220,false,0,8,D0,E3,88,98,03,FF,8F,BD
1309473600,00000220,false,0,8,D1,03,89,90,03,04,90,CD
1309483800,00000220,false,0,8,D2,23,89,90,03,05,90,DF
1309493800,00000220,false,0,8,CF,C3,88,98,03,02,90,EE
1309504100,00000220,false,0,8,CF,E3,88,90,03,00,90,F4
1309513800,00000220,false,0,8,D0,03,89,90,03,FD,8F,02
1309523800,00000220,false,0,8,D0,C3,88,90,03,FA,8F,1E
1309533800,00000220,false,0,8,CE,A3,88,90,03,FA,8F,2C
1309543800,00000220,false,0,8,CD,03,89,98,03,FB,8F,37
1309553700,00000220,false,0,8,CB,03,89,90,03,FF,8F,41
1309563700,00000220,false,0,8,CB,E3,88,90,03,02,90,52
1309573500,00000220,false,0,8,CE,C3,88,94,03,02,90,6B
1309583700,00000220,false,0,8,CE,A3,88,90,03,FF,8F,73
1309593700,00000220,false,0,8,CD,A3,88,98,03,FE,8F,89
1309603700,00000220,false,0,8,CD,C3,88,90,03,01,90,95
1309613700,00000220,false,0,8,CD,A3,88,94,03,FF,8F,A4
1309623700,00000220,false,0,8,CF,A3,88,90,03,04,90,B8
1309633700,00000220,false,0,8,D1,A3,88,94,03,08,90,C2
1309643600,00000220,false,0,8,D0,A3,88,94,03,01,90,DA
1309653600,00000220,false,0,8,CE,83,88,90,03,00,90,E5
1309663600,00000220,false,0,8,CF,83,88,90,03,05,90,FB
1309673400,00000220,false,0,8,CF,A3,88,98,03,00,90,0C
1309683600,00000220,false,0,8,D0,03,89,94,03,FE,8F,19
1309693600,00000220,false,0,8,D2,23,89,94,03,FF,8F,2A
1309703800,00000220,false,0,8,D0,03,89,94,03,03,90,3F
1309713600,00000220,false,0,8,D0,C3,88,94,03,09,90,42
1309723300,00000220,false,0,8,CE,A3,88,90,03,0D,90,50
1309733500,00000220,false,0,8,CC,A3,88,94,03,0B,90,60
1309743500,00000220,false,0,8,CD,E3,88,98,03,09,90,75
1309753500,00000220,false,0,8,CD,23,89,94,03,09,90,80
1309763500,00000220,false,0,8,CE,03,89,98,03,08,90,94
1309773300,00000220,false,0,8,CF,A3,88,90,03,04,90,A8
1309783500,00000220,false,0,8,CE,83,88,90,03,FC,8F,BE
1309793500,00000220,false,0,8,CD,C3,88,98,03,FB,8F,C4
1309803500,00000220,false,0,8,CD,C3,88,94,03,03,90,DB
1309813400,00000220,false,0,8,CD,83,88,94,03,09,90,E1
1309823400,00000220,false,0,8,CD,A3,88,98,03,09,90,F5
1309833400,00000220,false,0,8,CD,03,89,94,03,03,90,0A
1309843400,00000220,false,0,8,CF,23,89,98,03,01,90,1E
1309853400,00000220,false,0,8,CD,23,89,94,03,04,90,2D
1309863400,00000220,false,0,8,CE,03,89,98,03,09,90,37
1309873200,00000220,false,0,8,CF,C3,88,90,03,0D,90,43
1309883300,00000220,false,0,8,D0,C3,88,90,03,0D,90,52
1309893300,00000220,false,0,8,D1,23,89,98,03,08,90,69
1309903400,00000220,false,0,8,D3,23,89,94,03,07,90,74
1309913300,00000220,false,0,8,D2,E3,88,98,03,05,90,84
1309923300,00000220,false,0,8,CE,C3,88,94,03,00,90,99
1309933300,00000220,false,0,8,CE,83,88,98,03,02,90,AF
1309943000,00000220,false,0,8,CF,83,88,98,03,05,90,B3
1309953300,00000220,false,0,8,CF,63,88,90,03,03,90,C9
1309963200,00000220,false,0,8,CF,63,88,98,03,01,90,DF
1309973000,00000220,false,0,8,D0,A3,88,98,03,05,90,E2
1309983200,00000220,false,0,8,D0,A3,88,98,03,05,90,F2
1309993200,00000220,false,0,8,D0,C3,88,94,03,06,90,01
1310003200,00000220,false,0,8,CE,03,89,98,03,06,90,12
1310013200,00000220,false,0,8,CC,03,89,98,03,01,90,2D
1310023200,00000220,false,0,8,CC,C3,88,94,03,FF,8F,35
1310033200,00000220,false,0,8,CC,A3,88,98,03,01,90,4A
1310043100,00000220,false,0,8,CC,63,88,98,03,01,90,5A
1310053100,00000220,false,0,8,CE,83,88,98,03,02,90,6F
1310063100,00000220,false,0,8,CD,A3,88,98,03,02,90,7C
1310072900,00000220,false,0,8,CB,E3,88,94,03,FE,8F,83
1310083100,00000220,false,0,8,CE,E3,88,98,03,FB,8F,97
1310093100,00000220,false,0,8,CF,03,89,98,03,FF,8F,AD
1310103300,00000220,false,0,8,CC,03,89,98,03,03,90,BF
1310113000,00000220,false,0,8,CC,23,89,98,03,02,90,CC
1310123000,00000220,false,0,8,CF,03,89,94,03,FE,8F,D6
1310133000,00000220,false,0,8,CF,03,89,98,03,FB,8F,E9
1310143000,00000220,false,0,8,CD,63,89,98,03,FD,8F,F9
1310153000,00000220,false,0,8,D0,43,89,98,03,FE,8F,0D
1310162800,00000220,false,0,8,D3,03,89,98,03,F8,8F,18
1310172800,00000220,false,0,8,D4,03,89,98,03,FC,8F,2F
1310183000,00000220,false,0,8,D1,03,89,A0,03,01,90,38
1310193000,00000220,false,0,8,CF,E3,88,98,03,FF,8F,4A
1310202900,00000220,false,0,8,D1,C3,88,98,03,FC,8F,5B
1310212900,00000220,false,0,8,D3,E3,88,A4,03,02,90,6E
1310222900,00000220,false,0,8,D3,E3,88,9C,03,09,90,7F
1310232900,00000220,false,0,8,D1,03,89,9C,03,09,90,8C
1310242900,00000220,false,0,8,CE,23,89,A0,03,05,90,9B
1310252900,00000220,false,0,8,CE,03,89,A0,03,04,90,A8
1310262900,00000220,false,0,8,D0,C3,88,98,03,FC,8F,B8
1310272700,00000220,false,0,8,D3,A3,88,A0,03,FA,8F,C3
1310282800,00000220,false,0,8,D6,E3,88,A0,03,00,90,DD
1310292900,00000220,false,0,8,D2,03,89,9C,03,00,90,E4
1310302900,00000220,false,0,8,CF,23,89,9C,03,FE,8F,FE
1310312800,00000220,false,0,8,CC,23,89,9C,03,05,90,05
1310322800,00000220,false,0,8,CB,03,89,A0,03,08,90,1B
1310332800,00000220,false,0,8,CD,03,89,A0,03,08,90,2D
1310342800,00000220,false,0,8,D1,03,89,9C,03,07,90,3A
1310352800,00000220,false,0,8,D3,03,89,9C,03,02,90,49
1310362700,00000220,false,0,8,D1,E3,88,A0,03,06,90,5C
1310372500,00000220,false,0,8,CD,E3,88,9C,03,03,90,63
1310382700,00000220,false,0,8,CD,E3,88,98,03,FF,8F,78
1310392700,00000220,false,0,8,CE,C3,88,9C,03,FF,8F,8F
1310402500,00000220,false,0,8,CF,C3,88,9C,03,03,90,95
1310412700,00000220,false,0,8,D0,A3,88,A0,03,04,90,AB
1310422700,00000220,false,0,8,D0,A3,88,A0,03,00,90,B7
1310432700,00000220,false,0,8,CE,E3,88,98,03,FF,8F,CB
1310442600,00000220,false,0,8,CE,03,89,9C,03,FB,8F,DA
1310452600,00000220,false,0,8,CD,03,89,9C,03,FB,8F,EB
1310462600,00000220,false,0,8,CF,E3,88,9C,03,FE,8F,FF
1310472400,00000220,false,0,8,D0,E3,88,A0,03,02,90,09
1310482800,00000220,false,0,8,D0,03,89,98,03,01,90,11
1310492600,00000220,false,0,8,D3,23,89,98,03,01,90,22
1310502900,00000220,false,0,8,D3,03,89,98,03,FF,8F,31
1310512600,00000220,false,0,8,D0,E3,88,9C,03,02,90,45
1310522600,00000220,false,0,8,CF,43,89,A0,03,03,90,58
1310532500,00000220,false,0,8,CE,43,89,98,03,09,90,67
1310542500,00000220,false,0,8,D0,03,89,9C,03,09,90,7D
1310552500,00000220,false,0,8,D0,E3,88,A0,03,FF,8F,85
1310562500,00000220,false,0,8,D1,A3,88,98,03,FD,8F,9A
1310572300,00000220,false,0,8,D2,83,88,98,03,00,90,A1
1310582500,00000220,false,0,8,D1,63,88,94,03,03,90,BF
1310592500,00000220,false,0,8,D0,63,88,98,03,05,90,C2
1310602700,00000220,false,0,8,CF,A3,88,98,03,03,90,D1
1310612500,00000220,false,0,8,CE,C3,88,98,03,FE,8F,E8
1310622400,00000220,false,0,8,CF,E3,88,98,03,01,90,FF
1310632400,00000220,false,0,8,CF,03,89,98,03,03,90,00
1310642400,00000220,false,0,8,CE,23,89,98,03,FF,8F,1A
1310652400,00000220,false,0,8,CE,C3,88,98,03,00,90,2D
1310662400,00000220,false,0,8,CE,A3,88,90,03,07,90,3A
1310672200,00000220,false,0,8,D1,A3,88,98,03,05,90,45
1310682400,00000220,false,0,8,D1,E3,88,98,03,FC,8F,5B
1310692400,00000220,false,0,8,CE,23,89,98,03,FB,8F,66
1310702600,00000220,false,0,8,CD,23,89,94,03,04,90,7D
1310712300,00000220,false,0,8,D1,43,89,94,03,09,90,84
1310722300,00000220,false,0,8,D3,03,89,90,03,08,90,93
1310732300,00000220,false,0,8,D3,03,89,98,03,05,90,A6
1310742300,00000220,false,0,8,D3,C3,88,98,03,06,90,B6
1310752300,00000220,false,0,8,D4,A3,88,98,03,07,90,C8
1310762300,00000220,false,0,8,D4,C3,88,98,03,06,90,D9
1310772100,00000220,false,0,8,D3,C3,88,98,03,FF,8F,EE
1310782200,00000220,false,0,8,D0,E3,88,90,03,00,90,F7
1310792200,00000220,false,0,8,D1,03,89,98,03,04,90,05
1310802200,00000220,false,0,8,D1,23,89,90,03,FF,8F,17
1310812200,00000220,false,0,8,D0,23,89,94,03,05,90,21
1310822000,00000220,false,0,8,D0,03,89,90,03,09,90,31
1310832200,00000220,false,0,8,CF,E3,88,90,03,04,90,48
1310842200,00000220,false,0,8,D0,E3,88,90,03,04,90,5B
1310852100,00000220,false,0,8,D2,C3,88,90,03,06,90,6F
1310862100,00000220,false,0,8,D3,A3,88,90,03,06,90,7E
1310871900,00000220,false,0,8,D3,C3,88,90,03,03,90,8D
1310882100,00000220,false,0,8,D2,A3,88,98,03,FB,8F,9B
1310892100,00000220,false,0,8,D2,A3,88,98,03,F9,8F,A9
1310901900,00000220,false,0,8,D1,A3,88,94,03,FA,8F,B5
1310912100,00000220,false,0,8,D0,E3,88,94,03,F9,8F,C3
1310922100,00000220,false,0,8,CE,E3,88,94,03,F9,8F,D1
1310932000,00000220,false,0,8,CD,E3,88,90,03,F9,8F,EA
1310942000,00000220,false,0,8,CE,23,89,90,03,FA,8F,FF
1310952000,00000220,false,0,8,CF,03,89,94,03,FE,8F,06
1310962000,00000220,false,0,8,CE,23,89,90,03,FC,8F,11
1310971800,00000220,false,0,8,CD,E3,88,8C,03,FC,8F,2B
1310982000,00000220,false,0,8,CC,23,89,88,03,02,90,3C
1310992000,00000220,false,0,8,CC,23,89,88,03,03,90,4F
1311002000,00000220,false,0,8,CF,83,88,84,03,01,90,5B
1311011900,00000220,false,0,8,D0,63,88,8C,03,01,90,62
1311021900,00000220,false,0,8,CF,83,88,88,03,02,90,7E
1311031900,00000220,false,0,8,D0,A3,88,8C,03,FF,8F,81
1311041700,00000220,false,0,8,D0,E3,88,88,03,FC,8F,98
1311051900,00000220,false,0,8,CF,23,89,8C,03,FD,8F,AF
1311061900,00000220,false,0,8,CE,43,89,88,03,FD,8F,B8
1311071700,00000220,false,0,8,CE,23,89,88,03,FD,8F,C8
1311081900,00000220,false,0,8,CF,23,89,90,03,00,90,D7
1311091900,00000220,false,0,8,CE,E3,88,88,03,00,90,ED
1311101400,00000220,false,0,8,CE,C3,88,88,03,03,90,FE
1311111800,00000220,false,0,8,D1,A3,88,88,03,06,90,04
1311121800,00000220,false,0,8,D1,A3,88,84,03,09,90,15
1311131800,00000220,false,0,8,D1,C3,88,88,03,06,90,24
1311141800,00000220,false,0,8,D3,E3,88,84,03,00,90,3C
1311151800,00000220,false,0,8,D2,03,89,88,03,02,90,42
1311161800,00000220,false,0,8,D1,E3,88,88,03,03,90,53
1311171600,00000220,false,0,8,D1,A3,88,88,03,05,90,65
1311181700,00000220,false,0,8,D0,C3,88,88,03,06,90,75
1311191700,00000220,false,0,8,D1,C3,88,88,03,FF,8F,8C
1311201700,00000220,false,0,8,D1,83,88,88,03,FC,8F,9B
1311211700,00000220,false,0,8,D1,63,88,84,03,00,90,AA
1311221700,00000220,false,0,8,D1,E3,88,88,03,03,90,B3
1311231700,00000220,false,0,8,CF,23,89,88,03,03,90,C0
1311241700,00000220,false,0,8,CE,23,89,88,03,02,90,DE
1311251700,00000220,false,0,8,CE,E3,88,88,03,FF,8F,EB
1311261400,00000220,false,0,8,CF,C3,88,8C,03,03,90,F5
1311271500,00000220,false,0,8,D2,03,89,84,03,08,90,04
1311281600,00000220,false,0,8,D3,43,89,88,03,06,90,19
1311291600,00000220,false,0,8,D4,E3,88,88,03,01,90,22
1311301600,00000220,false,0,8,D3,63,88,84,03,01,90,3F
1311311600,00000220,false,0,8,D2,43,88,88,03,02,90,43
1311321600,00000220,false,0,8,D1,63,88,88,03,FD,8F,5A
1311331600,00000220,false,0,8,D0,A3,88,88,03,FF,8F,6D
1311341500,00000220,false,0,8,CF,03,89,88,03,03,90,70
1311351500,00000220,false,0,8,D1,03,89,88,03,05,90,84
1311361500,00000220,false,0,8,D2,03,89,88,03,07,90,99
1311371300,00000220,false,0,8,D2,E3,88,84,03,05,90,A0
1311381500,00000220,false,0,8,D1,E3,88,88,03,08,90,B6
1311391500,00000220,false,0,8,D1,E3,88,84,03,05,90,C1
1311401500,00000220,false,0,8,D1,C3,88,88,03,02,90,D0
1311411500,00000220,false,0,8,D2,C3,88,88,03,01,90,E0
1311421500,00000220,false,0,8,D2,E3,88,88,03,03,90,F2
1311431400,00000220,false,0,8,D2,23,89,88,03,09,90,0B
1311441400,00000220,false,0,8,D1,03,89,88,03,0E,90,1F
1311451400,00000220,false,0,8,D0,E3,88,88,03,06,90,25
1311461400,00000220,false,0,8,D0,03,89,88,03,FE,8F,3D
1311471200,00000220,false,0,8,CF,03,89,88,03,02,90,41
1311481400,00000220,false,0,8,D1,C3,88,88,03,09,90,59
1311491400,00000220,false,0,8,D4,A3,88,8C,03,0C,90,63
1311501600,00000220,false,0,8,D2,A3,88,8C,03,07,90,7A
1311511300,00000220,false,0,8,D1,C3,88,88,03,07,90,87
1311521300,00000220,false,0,8,D1,C3,88,88,03,04,90,92
1311531300,00000220,false,0,8,D2,C3,88,88,03,FD,8F,AD
1311541300,00000220,false,0,8,D3,E3,88,8C,03,FE,8F,B3
1311551300,00000220,false,0,8,D3,E3,88,88,03,01,90,C3
1311561300,00000220,false,0,8,CF,A3,88,88,03,FD,8F,D8
1311571100,00000220,false,0,8,CB,A3,88,8C,03,FE,8F,EB
1311581000,00000220,false,0,8,CC,C3,88,90,03,02,90,F5
1311591200,00000220,false,0,8,D0,03,89,88,03,00,90,0E
1311601200,00000220,false,0,8,D1,23,89,8C,03,FE,8F,10
1311611200,00000220,false,0,8,CF,03,89,88,03,00,90,2F
1311621200,00000220,false,0,8,D1,23,89,8C,03,FF,8F,33
1311631200,00000220,false,0,8,CF,03,89,88,03,01,90,4E
1311641200,00000220,false,0,8,CF,03,89,8C,03,03,90,54
1311651200,00000220,false,0,8,D0,03,89,8C,03,01,90,65
1311661200,00000220,false,0,8,CF,E3,88,8C,03,02,90,72
1311671000,00000220,false,0,8,CF,03,89,8C,03,02,90,85
1311681100,00000220,false,0,8,D1,E3,88,88,03,03,90,93
1311691100,00000220,false,0,8,D2,A3,88,90,03,05,90,AC
1311701000,00000220,false,0,8,D1,A3,88,90,03,02,90,B8
1311711100,00000220,false,0,8,CF,E3,88,88,03,FB,8F,C6
1311721100,00000220,false,0,8,CF,C3,88,90,03,F7,8F,DA
1311731100,00000220,false,0,8,CF,A3,88,8C,03,FA,8F,EB
1311741100,00000220,false,0,8,D0,A3,88,8C,03,F8,8F,F8
1311751000,00000220,false,0,8,D1,E3,88,90,03,FC,8F,03
1311761000,00000220,false,0,8,D0,E3,88,8C,03,01,90,12
1311770800,00000220,false,0,8,D0,C3,88,90,03,00,90,27
1311781000,00000220,false,0,8,D0,E3,88,88,03,FD,8F,3B
1311791000,00000220,false,0,8,CD,C3,88,8C,03,04,90,42
1311801000,00000220,false,0,8,CE,03,89,90,03,03,90,59
1311811000,00000220,false,0,8,CD,43,89,90,03,02,90,67
1311821000,00000220,false,0,8,CD,03,89,90,03,FE,8F,70
1311831000,00000220,false,0,8,CE,E3,88,8C,03,FA,8F,88
1311840900,00000220,false,0,8,CF,C3,88,88,03,F7,8F,92
1311850900,00000220,false,0,8,CE,C3,88,90,03,FC,8F,AE
1311860900,00000220,false,0,8,CC,03,89,8C,03,FE,8F,BD
1311870700,00000220,false,0,8,CD,E3,88,88,03,02,90,CC
1311880900,00000220,false,0,8,CE,C3,88,84,03,00,90,D9
1311890900,00000220,false,0,8,D0,E3,88,88,03,FF,8F,ED
1311901200,00000220,false,0,8,CF,23,89,8C,03,FF,8F,F1
1311910900,00000220,false,0,8,CC,63,89,88,03,02,90,0C
1311920600,00000220,false,0,8,CE,83,89,80,03,06,90,1A
1311930800,00000220,false,0,8,CF,43,89,88,03,02,90,21
1311940800,00000220,false,0,8,CF,23,89,84,03,FC,8F,34
1311950800,00000220,false,0,8,D0,23,89,88,03,FB,8F,48
1311960800,00000220,false,0,8,D0,03,89,8C,03,00,90,52
1311970600,00000220,false,0,8,CF,C3,88,88,03,02,90,6E
1311980800,00000220,false,0,8,CF,A3,88,88,03,00,90,7C
1311990800,00000220,false,0,8,CF,C3,88,84,03,01,90,8B
1312000700,00000220,false,0,8,CF,03,89,88,03,03,90,90
1312010700,00000220,false,0,8,CE,03,89,88,03,02,90,AE
1312020700,00000220,false,0,8,CD,C3,88,88,03,FE,8F,B9
1312030500,00000220,false,0,8,CE,83,88,84,03,FE,8F,C4
1312040700,00000220,false,0,8,CF,83,88,88,03,FF,8F,DA
1312050700,00000220,false,0,8,CF,83,88,84,03,FE,8F,E7
1312060700,00000220,false,0,8,CF,83,88,88,03,01,90,FF
1312070500,00000220,false,0,8,D0,E3,88,88,03,02,90,01
1312080600,00000220,false,0,8,CF,23,89,88,03,01,90,1E
1312090600,00000220,false,0,8,CF,03,89,88,03,02,90,21
1312100400,00000220,false,0,8,CF,83,88,88,03,07,90,35
1312110600,00000220,false,0,8,CE,A3,88,88,03,0A,90,47
1312120600,00000220,false,0,8,CD,03,89,88,03,07,90,52
1312130600,00000220,false,0,8,CE,03,89,8C,03,01,90,63
1312140600,00000220,false,0,8,CF,03,89,88,03,FB,8F,79
1312150500,00000220,false,0,8,CE,03,89,8C,03,FC,8F,8D
1312160500,00000220,false,0,8,D0,E3,88,8C,03,00,90,93
1312170300,00000220,false,0,8,D2,23,89,88,03,00,90,A0
1312180300,00000220,false,0,8,D2,63,89,88,03,01,90,B3
1312190500,00000220,false,0,8,D2,03,89,88,03,FE,8F,CF
1312200200,00000220,false,0,8,D1,C3,88,88,03,FE,8F,DD
1312210500,00000220,false,0,8,D2,A3,88,88,03,FE,8F,EC
1312220500,00000220,false,0,8,D2,C3,88,84,03,00,90,FD
1312230400,00000220,false,0,8,D1,03,89,84,03,00,90,0D
1312240400,00000220,false,0,8,CF,03,89,88,03,FF,8F,1D
1312250400,00000220,false,0,8,CE,E3,88,8C,03,03,90,22
1312260400,00000220,false,0,8,CF,E3,88,88,03,07,90,35
1312270200,00000220,false,0,8,D0,23,89,8C,03,05,90,49
1312280400,00000220,false,0,8,D0,43,89,8C,03,08,90,5A
1312290400,00000220,false,0,8,D1,43,89,8C,03,0C,90,61
1312300600,00000220,false,0,8,D0,43,89,8C,03,0C,90,7E
1312310300,00000220,false,0,8,CF,43,89,88,03,0A,90,89
1312320400,00000220,false,0,8,CF,23,89,88,03,08,90,97
1312330300,00000220,false,0,8,D1,03,89,8C,03,08,90,AD
1312340300,00000220,false,0,8,D0,03,89,8C,03,06,90,B8
1312350300,00000220,false,0,8,D1,E3,88,8C,03,FF,8F,C0
1312360300,00000220,false,0,8,D1,E3,88,90,03,FD,8F,D2
1312370100,00000220,false,0,8,D1,E3,88,8C,03,02,90,E4
1312380300,00000220,false,0,8,D0,E3,88,8C,03,08,90,FB
1312390300,00000220,false,0,8,D0,E3,88,8C,03,04,90,07
1312400300,00000220,false,0,8,CF,E3,88,90,03,08,90,1C
1312410200,00000220,false,0,8,CE,E3,88,88,03,0B,90,26
1312420200,00000220,false,0,8,CF,E3,88,88,03,05,90,33
1312430200,00000220,false,0,8,D1,C3,88,88,03,03,90,43
1312440200,00000220,false,0,8,D1,E3,88,90,03,03,90,5B
1312450200,00000220,false,0,8,D1,03,89,88,03,03,90,62
1312460200,00000220,false,0,8,D0,E3,88,8C,03,FF,8F,71
1312470000,00000220,false,0,8,CD,C3,88,88,03,FD,8F,86
1312480100,00000220,false,0,8,CE,03,89,8C,03,FD,8F,9C
1312490100,00000220,false,0,8,CE,E3,88,8C,03,04,90,A5
1312500200,00000220,false,0,8,CD,A3,88,88,03,06,90,B0
1312510100,00000220,false,0,8,CE,E3,88,88,03,08,90,C5
1312520100,00000220,false,0,8,CD,E3,88,8C,03,0F,90,DF
1312530100,00000220,false,0,8,CD,A3,88,8C,03,08,90,E6
1312540100,00000220,false,0,8,CE,A3,88,88,03,00,90,FD
1312550100,00000220,false,0,8,D0,E3,88,88,03,00,90,0F
1312560100,00000220,false,0,8,D0,C3,88,84,03,00,90,1B
1312569900,00000220,false,0,8,D1,83,88,80,03,01,90,29
1312580000,00000220,false,0,8,D6,C3,88,88,03,05,90,38
1312590000,00000220,false,0,8,D6,C3,88,88,03,0B,90,4E
1312600000,00000220,false,0,8,D1,C3,88,84,03,08,90,52
1312610000,00000220,false,0,8,D1,A3,88,88,03,00,90,6E
1312620000,00000220,false,0,8,D1,A3,88,88,03,05,90,75
1312630000,00000220,false,0,8,D0,03,89,88,03,06,90,84
1312640000,00000220,false,0,8,D0,83,89,84,03,03,90,9F
1312649900,00000220,false,0,8,CE,63,89,8C,03,00,90,A0
1312659900,00000220,false,0,8,CE,03,89,88,03,05,90,B3
1312669700,00000220,false,0,8,CE,23,89,88,03,09,90,C7
1312679900,00000220,false,0,8,CE,23,89,84,03,06,90,DE
1312689900,00000220,false,0,8,CF,C3,88,88,03,06,90,E2
1312700200,00000220,false,0,8,D1,A3,88,88,03,08,90,F6
1312709900,00000220,false,0,8,D3,A3,88,88,03,06,90,06
1312719900,00000220,false,0,8,D3,C3,88,88,03,00,90,10
1312729800,00000220,false,0,8,D2,E3,88,88,03,FB,8F,2B
1312739800,00000220,false,0,8,D1,23,89,88,03,FE,8F,3C
1312749800,00000220,false,0,8,CF,23,89,88,03,03,90,40
1312759800,00000220,false,0,8,CE,03,89,88,03,05,90,53
1312769600,00000220,false,0,8,CF,E3,88,88,03,03,90,61
1312779800,00000220,false,0,8,D1,C3,88,88,03,02,90,70
1312789800,00000220,false,0,8,D0,C3,88,88,03,04,90,83
1312799800,00000220,false,0,8,D0,C3,88,8C,03,05,90,96
1312809700,00000220,false,0,8,D0,C3,88,88,03,06,90,A5
1312819700,00000220,false,0,8,D0,C3,88,88,03,07,90,B4
1312829700,00000220,false,0,8,CD,03,89,88,03,07,90,C2
1312839700,00000220,false,0,8,CD,E3,88,88,03,04,90,DE
1312849700,00000220,false,0,8,CF,E3,88,8C,03,00,90,E0
1312859700,00000220,false,0,8,CD,03,89,88,03,06,90,F3
1312869500,00000220,false,0,8,CC,C3,88,88,03,08,90,03
1312879700,00000220,false,0,8,CC,A3,88,88,03,05,90,1E
1312889700,00000220,false,0,8,CE,C3,88,84,03,08,90,21
1312899600,00000220,false,0,8,D3,A3,88,88,03,07,90,39
1312909600,00000220,false,0,8,D2,A3,88,88,03,07,90,46
1312919600,00000220,false,0,8,CF,C3,88,88,03,06,90,52
1312929600,00000220,false,0,8,CF,03,89,88,03,05,90,62
1312939600,00000220,false,0,8,CE,43,89,88,03,07,90,75
1312949600,00000220,false,0,8,CF,03,89,8C,03,07,90,88
1312959500,00000220,false,0,8,CF,E3,88,88,03,08,90,94
1312969400,00000220,false,0,8,CE,E3,88,88,03,07,90,A2
1312979500,00000220,false,0,8,CD,C3,88,8C,03,05,90,B5
1312989500,00000220,false,0,8,CD,E3,88,8C,03,04,90,C2
1312999500,00000220,false,0,8,CE,23,89,88,03,FB,8F,D6
1313009500,00000220,false,0,8,D0,03,89,88,03,F7,8F,E4
1313019500,00000220,false,0,8,CF,23,89,88,03,FF,8F,FD
1313029500,00000220,false,0,8,CF,23,89,8C,03,07,90,08
1313039500,00000220,false,0,8,CF,C3,88,88,03,07,90,15
1313049400,00000220,false,0,8,CD,A3,88,8C,03,05,90,25
1313059400,00000220,false,0,8,CF,C3,88,8C,03,01,90,33
1313069300,00000220,false,0,8,D0,23,89,88,03,00,90,4E
1313079400,00000220,false,0,8,CF,23,89,90,03,06,90,5D
1313089400,00000220,false,0,8,D1,A3,88,88,03,09,90,69
1313099400,00000220,false,0,8,D0,83,88,90,03,09,90,7E
1313109400,00000220,false,0,8,CF,83,88,88,03,09,90,87
1313119300,00000220,false,0,8,D1,83,88,88,03,04,90,92
1313129300,00000220,false,0,8,D2,83,88,90,03,F8,8F,AE
1313139300,00000220,false,0,8,D2,83,88,88,03,F7,8F,B7
1313149300,00000220,false,0,8,D0,A3,88,88,03,FC,8F,C8
1313159300,00000220,false,0,8,CF,03,89,8C,03,05,90,D6
1313169100,00000220,false,0,8,CF,43,89,8C,03,03,90,E4
1313179300,00000220,false,0,8,CE,E3,88,90,03,00,90,F5
1313189300,00000220,false,0,8,CC,83,88,8C,03,00,90,0F
1313199300,00000220,false,0,8,CC,63,88,88,03,00,90,1B
1313209200,00000220,false,0,8,CE,63,88,88,03,01,90,2C
1313219300,00000220,false,0,8,CE,83,88,88,03,04,90,31
1313229200,00000220,false,0,8,CE,A3,88,90,03,06,90,4B
1313239200,00000220,false,0,8,D0,E3,88,8C,03,03,90,54
1313249200,00000220,false,0,8,D1,03,89,88,03,01,90,60
1313259200,00000220,false,0,8,D1,43,89,8C,03,04,90,79
1313269000,00000220,false,0,8,CF,43,89,88,03,07,90,84
1313279100,00000220,false,0,8,CE,03,89,88,03,03,90,91
1313289200,00000220,false,0,8,CF,03,89,8C,03,FE,8F,AE
1313299200,00000220,false,0,8,CE,03,89,88,03,02,90,BE
1313309100,00000220,false,0,8,CE,A3,88,8C,03,05,90,C4
1313319100,00000220,false,0,8,D1,83,88,88,03,02,90,D0
1313329100,00000220,false,0,8,D2,A3,88,90,03,03,90,EA
1313339100,00000220,false,0,8,D1,C3,88,8C,03,02,90,F4
1313349100,00000220,false,0,8,D1,E3,88,90,03,02,90,08
1313359100,00000220,false,0,8,D1,E3,88,88,03,04,90,12
1313368900,00000220,false,0,8,D1,A3,88,88,03,06,90,24
1313379000,00000220,false,0,8,D2,C3,88,88,03,05,90,34
1313389000,00000220,false,0,8,D2,23,89,88,03,00,90,40
1313399000,00000220,false,0,8,CF,03,89,8C,03,FF,8F,51
1313409000,00000220,false,0,8,CF,03,89,88,03,00,90,6F
1313419000,00000220,false,0,8,CF,03,89,8C,03,05,90,76
1313429000,00000220,false,0,8,CE,23,89,88,03,07,90,85
1313439000,00000220,false,0,8,CF,03,89,88,03,01,90,9E
1313449000,00000220,false,0,8,D1,E3,88,8C,03,FF,8F,A0
1313458900,00000220,false,0,8,D1,03,89,88,03,02,90,B3
1313468800,00000220,false,0,8,D0,E3,88,8C,03,01,90,C2
1313478900,00000220,false,0,8,CE,03,89,88,03,01,90,DF
1313488900,00000220,false,0,8,CE,23,89,8C,03,FE,8F,EF
1313498700,00000220,false,0,8,CD,E3,88,8C,03,01,90,F1
1313508900,00000220,false,0,8,CF,C3,88,8C,03,05,90,07
1313518900,00000220,false,0,8,D2,E3,88,88,03,FE,8F,1C
1313528800,00000220,false,0,8,D1,C3,88,8C,03,01,90,25
1313538800,00000220,false,0,8,D0,A3,88,8C,03,05,90,36
1313548800,00000220,false,0,8,CF,C3,88,8C,03,01,90,43
1313558800,00000220,false,0,8,CF,A3,88,8C,03,FB,8F,5A
1313568600,00000220,false,0,8,D0,C3,88,90,03,F9,8F,6F
1313578800,00000220,false,0,8,D1,E3,88,8C,03,FF,8F,70
1313588800,00000220,false,0,8,D0,E3,88,8C,03,06,90,89
1313598300,00000220,false,0,8,CD,C3,88,88,03,0B,90,97
1313608700,00000220,false,0,8,CE,A3,88,8C,03,08,90,A9
1313618700,00000220,false,0,8,D0,A3,88,88,03,0A,90,B9
1313628700,00000220,false,0,8,D0,C3,88,8C,03,09,90,CA
1313638700,00000220,false,0,8,D1,C3,88,8C,03,02,90,D4
1313648700,00000220,false,0,8,D0,23,89,90,03,04,90,EA
1313658700,00000220,false,0,8,D0,03,89,88,03,05,90,F5
1313668500,00000220,false,0,8,D0,E3,88,88,03,06,90,05
1313678700,00000220,false,0,8,CF,03,89,88,03,07,90,14
1313688700,00000220,false,0,8,CF,03,89,8C,03,07,90,28
1313698700,00000220,false,0,8,CF,03,89,88,03,03,90,30
1313708600,00000220,false,0,8,D2,E3,88,88,03,FF,8F,4F
1313718600,00000220,false,0,8,D3,C3,88,90,03,01,90,5B
1313728600,00000220,false,0,8,D3,E3,88,8C,03,08,90,6C
1313738600,00000220,false,0,8,D2,A3,88,88,03,0D,90,7C
1313748600,00000220,false,0,8,CE,C3,88,88,03,0D,90,88
1313758600,00000220,false,0,8,CC,C3,88,88,03,08,90,93
1313768400,00000220,false,0,8,CE,C3,88,8C,03,01,90,A0
1313778500,00000220,false,0,8,D1,C3,88,8C,03,FB,8F,BC
1313788600,00000220,false,0,8,D2,E3,88,8C,03,FB,8F,CF
1313798500,00000220,false,0,8,D0,E3,88,88,03,00,90,DF
1313808500,00000220,false,0,8,CE,23,89,88,03,04,90,E0
1313818500,00000220,false,0,8,CF,23,89,88,03,07,90,F4
1313828500,00000220,false,0,8,D4,C3,88,84,03,02,90,01
1313838500,00000220,false,0,8,D7,C3,88,88,03,FA,8F,1F
1313848500,00000220,false,0,8,D5,E3,88,88,03,FD,8F,2E
1313858400,00000220,false,0,8,D1,E3,88,88,03,05,90,35
1313868300,00000220,false,0,8,CF,C3,88,88,03,00,90,4C
1313878400,00000220,false,0,8,D0,03,89,88,03,FB,8F,58
1313888400,00000220,false,0,8,D1,E3,88,8C,03,FD,8F,6E
1313898200,00000220,false,0,8,D2,C3,88,90,03,01,90,78
1313908400,00000220,false,0,8,D1,03,89,88,03,02,90,83
1313918400,00000220,false,0,8,D1,E3,88,88,03,FE,8F,9D
1313928400,00000220,false,0,8,D1,E3,88,88,03,FD,8F,AA
1313938400,00000220,false,0,8,D1,E3,88,84,03,02,90,BC
1313948300,00000220,false,0,8,CF,C3,88,88,03,02,90,CE
1313958300,00000220,false,0,8,CE,C3,88,8C,03,01,90,D0
1313968100,00000220,false,0,8,D0,03,89,8C,03,05,90,E9
1313978300,00000220,false,0,8,D1,63,89,88,03,03,90,F2
1313988300,00000220,false,0,8,D1,63,89,8C,03,01,90,04
1313998300,00000220,false,0,8,D0,23,89,88,03,FF,8F,1C
1314008300,00000220,false,0,8,D0,23,89,90,03,F9,8F,2E
1314018300,00000220,false,0,8,D2,03,89,8C,03,FA,8F,3F
1314028200,00000220,false,0,8,D3,E3,88,88,03,02,90,42
1314038000,00000220,false,0,8,D1,E3,88,88,03,04,90,52
1314048200,00000220,false,0,8,D1,03,89,88,03,03,90,62
1314058200,00000220,false,0,8,D2,03,89,8C,03,04,90,78
1314068000,00000220,false,0,8,D3,23,89,88,03,06,90,89
1314078200,00000220,false,0,8,D1,03,89,8C,03,02,90,97
1314088200,00000220,false,0,8,CF,A3,88,88,03,01,90,AF
1314098200,00000220,false,0,8,CD,63,88,8C,03,04,90,B2
1314108200,00000220,false,0,8,CC,A3,88,90,03,FD,8F,CF
1314118100,00000220,false,0,8,CE,C3,88,88,03,FC,8F,D6
1314128100,00000220,false,0,8,D1,03,89,8C,03,FE,8F,E0
1314138100,00000220,false,0,8,D1,03,89,88,03,00,90,F1
1314148100,00000220,false,0,8,D1,C3,88,8C,03,05,90,09
1314158100,00000220,false,0,8,D3,03,89,8C,03,05,90,1A
1314167900,00000220,false,0,8,D3,23,89,8C,03,06,90,2D
1314178100,00000220,false,0,8,D1,23,89,88,03,07,90,36
1314188100,00000220,false,0,8,D1,03,89,88,03,07,90,46
1314198100,00000220,false,0,8,D1,E3,88,88,03,07,90,57
1314208000,00000220,false,0,8,CF,C3,88,88,03,05,90,63
1314218000,00000220,false,0,8,CE,23,89,84,03,02,90,7A
1314228000,00000220,false,0,8,CE,63,89,88,03,03,90,81
1314238000,00000220,false,0,8,CE,43,89,8C,03,09,90,9B
1314248000,00000220,false,0,8,CE,03,89,88,03,0A,90,A6
1314258000,00000220,false,0,8,CF,A3,88,88,03,06,90,B2
1314267800,00000220,false,0,8,CE,C3,88,88,03,03,90,CE
1314277900,00000220,false,0,8,D1,C3,88,84,03,05,90,D1
1314287900,00000220,false,0,8,D3,E3,88,84,03,02,90,EE
1314298000,00000220,false,0,8,D2,23,89,88,03,FF,8F,FE
1314307900,00000220,false,0,8,D1,C3,88,88,03,FD,8F,0A
1314317900,00000220,false,0,8,D0,A3,88,88,03,01,90,1E
1314327900,00000220,false,0,8,CF,E3,88,88,03,05,90,23
1314337900,00000220,false,0,8,CF,03,89,88,03,04,90,33
1314347900,00000220,false,0,8,D1,23,89,88,03,0A,90,4B
1314357800,00000220,false,0,8,D1,23,89,88,03,0A,90,5B
1314367700,00000220,false,0,8,D0,E3,88,88,03,0B,90,68
1314377800,00000220,false,0,8,D1,C3,88,88,03,0A,90,78
1314387800,00000220,false,0,8,D0,C3,88,88,03,03,90,80
1314397300,00000220,false,0,8,CE,03,89,88,03,FE,8F,9B
1314407800,00000220,false,0,8,D1,43,89,88,03,00,90,A1
1314417800,00000220,false,0,8,D2,63,89,88,03,00,90,B0
1314427700,00000220,false,0,8,D3,43,89,8C,03,FC,8F,C0
1314437700,00000220,false,0,8,D2,03,89,88,03,FB,8F,DA
1314447800,00000220,false,0,8,D3,E3,88,90,03,FC,8F,E5
1314457700,00000220,false,0,8,D2,C3,88,90,03,FF,8F,F7
1314467500,00000220,false,0,8,D0,C3,88,8C,03,00,90,03
1314477700,00000220,false,0,8,CE,C3,88,88,03,02,90,1F
1314487700,00000220,false,0,8,CE,C3,88,8C,03,05,90,24
1314497700,00000220,false,0,8,CF,E3,88,88,03,03,90,31
1314507700,00000220,false,0,8,CF,C3,88,8C,03,01,90,43
1314517600,00000220,false,0,8,D0,83,88,88,03,FF,8F,5D
1314527600,00000220,false,0,8,CF,83,88,90,03,00,90,64
1314537600,00000220,false,0,8,D0,E3,88,90,03,02,90,79
1314547600,00000220,false,0,8,D1,43,89,90,03,03,90,8A
1314557600,00000220,false,0,8,D2,23,89,88,03,09,90,9B
1314567400,00000220,false,0,8,D0,E3,88,8C,03,0B,90,AC
1314577600,00000220,false,0,8,CF,C3,88,88,03,0B,90,B9
1314587600,00000220,false,0,8,CF,E3,88,88,03,09,90,C7
1314597300,00000220,false,0,8,CE,C3,88,8C,03,0A,90,DB
1314607500,00000220,false,0,8,CD,C3,88,88,03,06,90,E0
1314617500,00000220,false,0,8,CE,03,89,88,03,0A,90,F6
1314627500,00000220,false,0,8,CE,E3,88,88,03,0D,90,08
1314637500,00000220,false,0,8,CE,A3,88,88,03,09,90,14
1314647500,00000220,false,0,8,D1,C3,88,88,03,04,90,22
1314657500,00000220,false,0,8,D0,C3,88,88,03,02,90,31
1314667300,00000220,false,0,8,CF,A3,88,88,03,01,90,4F
1314677500,00000220,false,0,8,D0,E3,88,88,03,03,90,50
1314687500,00000220,false,0,8,D2,23,89,88,03,06,90,66
1314697500,00000220,false,0,8,D2,E3,88,84,03,09,90,74
1314707400,00000220,false,0,8,D1,E3,88,88,03,03,90,83
1314717200,00000220,false,0,8,D0,E3,88,88,03,01,90,9E
1314727400,00000220,false,0,8,CF,C3,88,8C,03,00,90,A0
1314737400,00000220,false,0,8,CE,E3,88,8C,03,FE,8F,BC
1314747400,00000220,false,0,8,CE,03,89,90,03,FF,8F,C2
1314757300,00000220,false,0,8,CF,E3,88,90,03,01,90,D7
1314767200,00000220,false,0,8,D1,C3,88,8C,03,02,90,E4
1314777300,00000220,false,0,8,D0,C3,88,88,03,03,90,F0
1314787300,00000220,false,0,8,D0,83,88,90,03,04,90,0B
1314797100,00000220,false,0,8,CF,83,88,8C,03,FF,8F,1E
1314807300,00000220,false,0,8,D1,E3,88,88,03,FF,8F,2C
1314817300,00000220,false,0,8,D1,E3,88,88,03,FD,8F,3A
1314827200,00000220,false,0,8,D3,E3,88,88,03,02,90,42
1314837200,00000220,false,0,8,D3,E3,88,88,03,07,90,59
1314847200,00000220,false,0,8,D3,03,89,88,03,0C,90,6F
1314857200,00000220,false,0,8,D1,03,89,88,03,09,90,78
1314867000,00000220,false,0,8,D2,E3,88,88,03,02,90,83
1314877000,00000220,false,0,8,D0,C3,88,90,03,01,90,96
1314887200,00000220,false,0,8,CD,83,88,8C,03,00,90,AE
1314897200,00000220,false,0,8,CE,43,88,88,03,FF,8F,BB
1314907200,00000220,false,0,8,CD,A3,88,8C,03,FC,8F,CB
1314917100,00000220,false,0,8,CD,E3,88,88,03,FC,8F,D7
1314927100,00000220,false,0,8,CD,E3,88,88,03,01,90,ED
1314937100,00000220,false,0,8,CE,C3,88,88,03,05,90,F0
1314947100,00000220,false,0,8,CE,A3,88,88,03,07,90,02
1314957100,00000220,false,0,8,CC,E3,88,88,03,07,90,10
1314966900,00000220,false,0,8,CC,23,89,88,03,01,90,2D
1314977100,00000220,false,0,8,CD,43,89,8C,03,FC,8F,3A
1314987100,00000220,false,0,8,CE,43,89,8C,03,FE,8F,4F
1314996800,00000220,false,0,8,D0,63,89,88,03,FC,8F,5B
1315007000,00000220,false,0,8,D0,43,89,8C,03,FB,8F,6C
1315017000,00000220,false,0,8,CE,E3,88,8C,03,FE,8F,7C
1315027000,00000220,false,0,8,CE,A3,88,90,03,06,90,8B
1315037000,00000220,false,0,8,CE,E3,88,8C,03,09,90,98
1315047000,00000220,false,0,8,CF,03,89,90,03,08,90,AF
1315057000,00000220,false,0,8,CE,C3,88,90,03,08,90,BD
1315066800,00000220,false,0,8,CE,83,88,88,03,03,90,CE
1315077000,00000220,false,0,8,CE,A3,88,90,03,FE,8F,D0
1315086900,00000220,false,0,8,CF,C3,88,8C,03,01,90,E3
1315097000,00000220,false,0,8,CE,83,88,88,03,04,90,F1
1315106900,00000220,false,0,8,CE,63,88,8C,03,03,90,02
1315116900,00000220,false,0,8,CE,83,88,84,03,01,90,18
1315126900,00000220,false,0,8,D0,83,88,88,03,04,90,23
1315136900,00000220,false,0,8,D1,A3,88,88,03,04,90,32
1315146900,00000220,false,0,8,D0,A3,88,8C,03,08,90,4B
1315156900,00000220,false,0,8,D2,A3,88,88,03,05,90,54
1315166700,00000220,false,0,8,D1,C3,88,88,03,01,90,61
1315176800,00000220,false,0,8,D2,E3,88,90,03,05,90,7C
1315186800,00000220,false,0,8,D1,E3,88,88,03,05,90,85
1315196800,00000220,false,0,8,D0,03,89,88,03,FF,8F,9C
1315206800,00000220,false,0,8,D0,C3,88,88,03,FB,8F,A9
1315216800,00000220,false,0,8,CF,A3,88,88,03,FC,8F,B9
1315226800,00000220,false,0,8,CC,E3,88,88,03,03,90,CC
1315236700,00000220,false,0,8,CE,E3,88,88,03,04,90,D1
1315246700,00000220,false,0,8,D1,E3,88,88,03,00,90,EE
1315256700,00000220,false,0,8,CF,03,89,88,03,03,90,F0
1315266600,00000220,false,0,8,CE,23,89,88,03,06,90,02
1315276700,00000220,false,0,8,CD,23,89,8C,03,05,90,14
1315286700,00000220,false,0,8,CB,E3,88,88,03,03,90,2D
1315296700,00000220,false,0,8,CA,C3,88,88,03,00,90,39
1315306700,00000220,false,0,8,CD,E3,88,88,03,FD,8F,46
1315316700,00000220,false,0,8,D1,63,89,8C,03,FF,8F,53
1315326600,00000220,false,0,8,D3,43,89,88,03,08,90,6B
1315336600,00000220,false,0,8,D3,03,89,90,03,0C,90,77
1315346600,00000220,false,0,8,D4,23,89,88,03,07,90,8B
1315356600,00000220,false,0,8,D3,03,89,8C,03,07,90,9C
1315366400,00000220,false,0,8,D1,E3,88,88,03,03,90,A3
1315376600,00000220,false,0,8,D0,C3,88,8C,03,FF,8F,B1
1315386600,00000220,false,0,8,D1,C3,88,8C,03,02,90,C4
1315396400,00000220,false,0,8,D2,A3,88,88,03,07,90,D6
1315406500,00000220,false,0,8,D1,A3,88,88,03,0A,90,E8
1315416500,00000220,false,0,8,D0,A3,88,8C,03,09,90,FA
1315426500,00000220,false,0,8,CF,C3,88,8C,03,08,90,08
1315436500,00000220,false,0,8,CF,E3,88,88,03,06,90,12
1315446500,00000220,false,0,8,D0,C3,88,8C,03,03,90,24
1315456500,00000220,false,0,8,D2,E3,88,8C,03,05,90,38
1315466300,00000220,false,0,8,D2,03,89,8C,03,09,90,4F
1315476200,00000220,false,0,8,CF,03,89,8C,03,09,90,5A
1315486400,00000220,false,0,8,CE,C3,88,8C,03,09,90,68
1315496500,00000220,false,0,8,D0,03,89,90,03,05,90,7D
1315506400,00000220,false,0,8,D2,23,89,88,03,FC,8F,8D
1315516400,00000220,false,0,8,D1,E3,88,90,03,F9,8F,9E
1315526400,00000220,false,0,8,D0,E3,88,88,03,00,90,AF
1315536400,00000220,false,0,8,D2,C3,88,8C,03,08,90,BD
1315546400,00000220,false,0,8,D2,23,89,90,03,06,90,CE
1315556400,00000220,false,0,8,CE,23,89,8C,03,05,90,D7
1315566200,00000220,false,0,8,CD,A3,88,8C,03,04,90,E2
1315576300,00000220,false,0,8,CF,83,88,90,03,07,90,FD
1315586300,00000220,false,0,8,CF,A3,88,8C,03,0D,90,0F
1315596100,00000220,false,0,8,D0,E3,88,8C,03,03,90,14
1315606300,00000220,false,0,8,D2,23,89,88,03,FA,8F,2B
1315616300,00000220,false,0,8,D0,A3,88,88,03,F9,8F,37
1315626300,00000220,false,0,8,D2,43,88,8C,03,00,90,45
1315636300,00000220,false,0,8,D3,83,88,8C,03,04,90,58
1315646300,00000220,false,0,8,D1,03,89,88,03,02,90,63
1315656200,00000220,false,0,8,D0,E3,88,88,03,FF,8F,7D
1315666100,00000220,false,0,8,CE,E3,88,8C,03,01,90,80
1315676200,00000220,false,0,8,CE,E3,88,90,03,08,90,9D
1315686200,00000220,false,0,8,CE,03,89,88,03,06,90,A2
1315696200,00000220,false,0,8,D0,E3,88,88,03,05,90,B2
1315706200,00000220,false,0,8,D1,23,89,8C,03,08,90,CD
1315715900,00000220,false,0,8,D1,03,89,8C,03,07,90,DA
1315726100,00000220,false,0,8,D0,03,89,88,03,06,90,E4
1315736100,00000220,false,0,8,CE,03,89,8C,03,06,90,F6
1315746100,00000220,false,0,8,CF,E3,88,8C,03,05,90,07
1315756100,00000220,false,0,8,D0,C3,88,88,03,06,90,15
1315765900,00000220,false,0,8,D0,A3,88,88,03,04,90,23
1315776100,00000220,false,0,8,D0,63,88,90,03,FD,8F,33
1315786100,00000220,false,0,8,D0,83,88,88,03,00,90,4F
1315796100,00000220,false,0,8,D0,A3,88,8C,03,04,90,57
1315806000,00000220,false,0,8,CF,A3,88,8C,03,01,90,63
1315816000,00000220,false,0,8,CE,A3,88,8C,03,00,90,71
1315826000,00000220,false,0,8,D0,A3,88,88,03,01,90,8E
1315836000,00000220,false,0,8,D1,C3,88,88,03,05,90,95
1315846000,00000220,false,0,8,D0,E3,88,8C,03,04,90,A7
1315856000,00000220,false,0,8,D0,C3,88,8C,03,02,90,B5
1315865800,00000220,false,0,8,D0,C3,88,88,03,02,90,C1
1315876000,00000220,false,0,8,D1,C3,88,8C,03,FF,8F,D0
1315886000,00000220,false,0,8,D0,C3,88,8C,03,FC,8F,EC
1315896000,00000220,false,0,8,CF,E3,88,8C,03,FC,8F,FD
1315905900,00000220,false,0,8,CF,03,89,88,03,FE,8F,0A
1315915900,00000220,false,0,8,CF,E3,88,8C,03,05,90,17
1315925900,00000220,false,0,8,D0,C3,88,88,03,07,90,24
1315935900,00000220,false,0,8,CF,A3,88,8C,03,08,90,38
1315945900,00000220,false,0,8,CF,83,88,90,03,0A,90,4E
1315955900,00000220,false,0,8,D0,A3,88,88,03,08,90,57
1315965700,00000220,false,0,8,CE,A3,88,88,03,00,90,6D
1315975800,00000220,false,0,8,CF,C3,88,88,03,FA,8F,77
1315985800,00000220,false,0,8,D1,A3,88,88,03,FD,8F,8A
1315995400,00000220,false,0,8,D3,A3,88,8C,03,FD,8F,90
1316005800,00000220,false,0,8,D2,A3,88,8C,03,FC,8F,AE
1316015600,00000220,false,0,8,CF,A3,88,88,03,01,90,BF
1316025800,00000220,false,0,8,CF,A3,88,88,03,02,90,CE
1316035800,00000220,false,0,8,D2,C3,88,8C,03,01,90,D4
1316045700,00000220,false,0,8,D4,C3,88,8C,03,02,90,E9
1316055800,00000220,false,0,8,D2,C3,88,88,03,01,90,F0
1316065600,00000220,false,0,8,CF,C3,88,88,03,00,90,0C
1316075700,00000220,false,0,8,D0,C3,88,88,03,F9,8F,17
1316085700,00000220,false,0,8,D1,A3,88,88,03,FA,8F,29
1316095600,00000220,false,0,8,D2,A3,88,88,03,03,90,32
1316105700,00000220,false,0,8,D3,C3,88,8C,03,0A,90,4E
1316115700,00000220,false,0,8,D5,A3,88,8C,03,0B,90,53
1316125700,00000220,false,0,8,D4,43,88,8C,03,0C,90,63
1316135700,00000220,false,0,8,D0,43,88,84,03,0A,90,75
1316145600,00000220,false,0,8,CE,83,88,88,03,00,90,8D
1316155600,00000220,false,0,8,CD,C3,88,88,03,FB,8F,94
1316165500,00000220,false,0,8,D1,23,89,88,03,FC,8F,AA
1316175600,00000220,false,0,8,D1,23,89,88,03,FC,8F,BA
1316185600,00000220,false,0,8,CF,C3,88,88,03,FF,8F,CA
1316195600,00000220,false,0,8,CE,E3,88,88,03,02,90,DF
1316205600,00000220,false,0,8,CE,E3,88,88,03,FE,8F,E8
1316215600,00000220,false,0,8,D0,E3,88,88,03,01,90,FE
1316225500,00000220,false,0,8,D2,23,89,88,03,09,90,0B
1316235500,00000220,false,0,8,D2,03,89,90,03,0A,90,12
1316245500,00000220,false,0,8,D1,23,89,88,03,04,90,25
1316255500,00000220,false,0,8,D1,23,89,88,03,FE,8F,3C
1316265300,00000220,false,0,8,D1,03,89,88,03,FB,8F,4B
1316275500,00000220,false,0,8,D1,03,89,8C,03,FC,8F,5E
1316285500,00000220,false,0,8,D1,C3,88,8C,03,03,90,67
1316295500,00000220,false,0,8,D1,83,88,90,03,08,90,7E
1316305400,00000220,false,0,8,D2,A3,88,88,03,09,90,88
1316315200,00000220,false,0,8,D1,A3,88,8C,03,09,90,9D
1316325400,00000220,false,0,8,CD,63,88,88,03,0A,90,A4
1316335400,00000220,false,0,8,CE,A3,88,8C,03,08,90,B9
1316345400,00000220,false,0,8,D3,C3,88,8C,03,02,90,C6
1316355400,00000220,false,0,8,D4,E3,88,94,03,FF,8F,DD
1316365200,00000220,false,0,8,D2,C3,88,94,03,02,90,EF
1316375300,00000220,false,0,8,D1,83,88,94,03,00,90,FA
1316385400,00000220,false,0,8,CE,A3,88,94,03,00,90,09
1316394900,00000220,false,0,8,D0,C3,88,90,03,00,90,17
1316405300,00000220,false,0,8,D2,83,88,94,03,03,90,2E
1316415300,00000220,false,0,8,D1,A3,88,90,03,01,90,39
1316425300,00000220,false,0,8,D1,C3,88,94,03,FF,8F,48
1316435300,00000220,false,0,8,D2,C3,88,94,03,FD,8F,59
1316445300,00000220,false,0,8,D2,E3,88,94,03,02,90,6F
1316455300,00000220,false,0,8,D0,C3,88,90,03,05,90,7A
1316465100,00000220,false,0,8,CE,C3,88,90,03,03,90,86
1316475200,00000220,false,0,8,CF,A3,88,90,03,05,90,9B
1316485200,00000220,false,0,8,CE,A3,88,94,03,05,90,AC
1316495100,00000220,false,0,8,CC,A3,88,94,03,04,90,BB
1316505200,00000220,false,0,8,CF,E3,88,90,03,06,90,CA
1316515200,00000220,false,0,8,D1,03,89,94,03,05,90,D0
1316525200,00000220,false,0,8,D2,C3,88,94,03,04,90,E1
1316534900,00000220,false,0,8,D3,C3,88,90,03,08,90,F0
1316545100,00000220,false,0,8,D2,03,89,90,03,05,90,0F
1316555100,00000220,false,0,8,D1,63,89,90,03,06,90,1F
1316565000,00000220,false,0,8,D2,43,89,94,03,05,90,23
1316575000,00000220,false,0,8,D2,23,89,98,03,FE,8F,3F
1316585100,00000220,false,0,8,D0,A3,88,90,03,FE,8F,42
1316594600,00000220,false,0,8,CF,A3,88,94,03,00,90,58
1316605100,00000220,false,0,8,D1,83,88,90,03,FD,8F,62
1316615100,00000220,false,0,8,D2,83,88,8C,03,FC,8F,7E
1316625000,00000220,false,0,8,D1,C3,88,88,03,02,90,80
1316635000,00000220,false,0,8,D0,C3,88,88,03,02,90,91
1316645000,00000220,false,0,8,CF,03,89,84,03,00,90,AB
1316655000,00000220,false,0,8,D0,23,89,8C,03,00,90,B2
1316664800,00000220,false,0,8,D2,23,89,8C,03,00,90,C4
1316674900,00000220,false,0,8,D0,03,89,8C,03,02,90,D4
1316685000,00000220,false,0,8,CE,A3,88,88,03,03,90,EE
1316694800,00000220,false,0,8,D0,A3,88,8C,03,03,90,F4
1316704900,00000220,false,0,8,D1,C3,88,88,03,02,90,00
1316714900,00000220,false,0,8,CE,A3,88,8C,03,FE,8F,1C
1316724900,00000220,false,0,8,CF,63,88,88,03,04,90,20
1316734900,00000220,false,0,8,CF,63,88,8C,03,08,90,38
1316744900,00000220,false,0,8,CF,A3,88,88,03,01,90,4F
1316754900,00000220,false,0,8,CF,E3,88,88,03,FD,8F,58
1316764700,00000220,false,0,8,CF,C3,88,88,03,00,90,6C
1316774800,00000220,false,0,8,CE,C3,88,88,03,04,90,71
1316784900,00000220,false,0,8,CF,C3,88,88,03,02,90,8E
1316794600,00000220,false,0,8,D1,03,89,8C,03,03,90,96
1316804800,00000220,false,0,8,D0,E3,88,88,03,05,90,A2
1316814800,00000220,false,0,8,D1,A3,88,8C,03,04,90,B6
1316824800,00000220,false,0,8,D2,63,88,90,03,02,90,CB
1316834800,00000220,false,0,8,D2,83,88,90,03,FE,8F,D4
1316844800,00000220,false,0,8,D0,C3,88,90,03,F9,8F,EF
1316854800,00000220,false,0,8,CF,03,89,90,03,FC,8F,F0
1316864600,00000220,false,0,8,CF,63,89,90,03,FA,8F,0E
1316874600,00000220,false,0,8,CF,83,89,90,03,02,90,19
1316884700,00000220,false,0,8,CE,23,89,90,03,05,90,2B
1316894800,00000220,false,0,8,CE,03,89,8C,03,03,90,35
1316904700,00000220,false,0,8,CE,E3,88,8C,03,02,90,43
1316914500,00000220,false,0,8,CD,E3,88,8C,03,00,90,5E
1316924700,00000220,false,0,8,CD,03,89,90,03,03,90,66
1316934700,00000220,false,0,8,CF,E3,88,94,03,05,90,7F
1316944700,00000220,false,0,8,D2,03,89,8C,03,FE,8F,83
1316954600,00000220,false,0,8,D3,03,89,90,03,FE,8F,96
1316964500,00000220,false,0,8,D1,03,89,90,03,06,90,AF
1316974500,00000220,false,0,8,CF,23,89,90,03,09,90,BE
1316984600,00000220,false,0,8,D0,03,89,90,03,08,90,CE
1316994400,00000220,false,0,8,D3,E3,88,90,03,08,90,D0
1317004600,00000220,false,0,8,D1,E3,88,90,03,06,90,EC
1317014600,00000220,false,0,8,D1,E3,88,90,03,07,90,FF
1317024600,00000220,false,0,8,D2,E3,88,98,03,04,90,05
1317034500,00000220,false,0,8,D1,23,89,90,03,FB,8F,13
1317044500,00000220,false,0,8,CF,63,89,90,03,FB,8F,21
1317054500,00000220,false,0,8,CE,43,89,90,03,05,90,3B
1317064400,00000220,false,0,8,D0,03,89,90,03,07,90,4F
1317074400,00000220,false,0,8,D2,C3,88,90,03,06,90,5F
1317084500,00000220,false,0,8,D0,C3,88,98,03,02,90,61
1317094300,00000220,false,0,8,D0,E3,88,90,03,00,90,77
1317104500,00000220,false,0,8,D1,03,89,90,03,00,90,89
1317114400,00000220,false,0,8,D1,03,89,8C,03,00,90,95
1317124400,00000220,false,0,8,D2,E3,88,90,03,00,90,A9
1317134400,00000220,false,0,8,D0,03,89,8C,03,FF,8F,B0
1317144400,00000220,false,0,8,CE,C3,88,8C,03,FD,8F,CD
1317154400,00000220,false,0,8,CE,83,88,90,03,FE,8F,D0
1317164200,00000220,false,0,8,CF,83,88,90,03,03,90,E9
1317174200,00000220,false,0,8,CF,83,88,90,03,06,90,FA
1317184400,00000220,false,0,8,CF,83,88,90,03,06,90,0A
1317194200,00000220,false,0,8,CE,A3,88,90,03,01,90,14
1317204300,00000220,false,0,8,CF,C3,88,8C,03,FE,8F,2F
1317214100,00000220,false,0,8,CE,A3,88,90,03,01,90,34
1317224300,00000220,false,0,8,CC,E3,88,90,03,03,90,44
1317234300,00000220,false,0,8,CC,E3,88,90,03,05,90,56
1317244300,00000220,false,0,8,CC,E3,88,90,03,07,90,68
1317254300,00000220,false,0,8,CE,E3,88,90,03,00,90,75
1317264100,00000220,false,0,8,CE,E3,88,90,03,00,90,85
1317274100,00000220,false,0,8,CB,03,89,90,03,04,90,97
1317284200,00000220,false,0,8,CC,43,89,88,03,01,90,AD
1317293800,00000220,false,0,8,CC,43,89,94,03,01,90,B9
1317304200,00000220,false,0,8,CD,43,89,90,03,04,90,C9
1317314200,00000220,false,0,8,CD,03,89,8C,03,04,90,D5
1317324200,00000220,false,0,8,CF,E3,88,90,03,04,90,E8
1317334200,00000220,false,0,8,D0,E3,88,90,03,07,90,FC
1317344200,00000220,false,0,8,D0,03,89,90,03,06,90,0C
1317354200,00000220,false,0,8,D1,23,89,90,03,03,90,1A
1317364000,00000220,false,0,8,D3,23,89,90,03,04,90,2F
1317373900,00000220,false,0,8,D2,03,89,98,03,09,90,3B
1317384100,00000220,false,0,8,D0,23,89,90,03,05,90,4D
1317393900,00000220,false,0,8,CF,23,89,94,03,03,90,5C
1317404100,00000220,false,0,8,D1,43,89,94,03,02,90,6F
1317413800,00000220,false,0,8,D4,43,89,98,03,FE,8F,71
1317424100,00000220,false,0,8,D3,E3,88,94,03,FC,8F,89
1317434000,00000220,false,0,8,D1,C3,88,90,03,01,90,99
1317444000,00000220,false,0,8,CF,E3,88,98,03,01,90,AF
1317454000,00000220,false,0,8,CF,23,89,8C,03,FE,8F,BE
1317463900,00000220,false,0,8,CD,C3,88,94,03,FC,8F,C3
1317474000,00000220,false,0,8,CB,83,88,98,03,01,90,DB
1317484000,00000220,false,0,8,CD,43,88,94,03,07,90,EF
1317493600,00000220,false,0,8,CF,43,88,94,03,09,90,F3
1317504000,00000220,false,0,8,CF,A3,88,98,03,08,90,04
1317513700,00000220,false,0,8,CE,A3,88,90,03,05,90,18
1317523900,00000220,false,0,8,CE,83,88,90,03,06,90,2B
1317533900,00000220,false,0,8,CF,83,88,90,03,07,90,3D
1317543900,00000220,false,0,8,CF,A3,88,90,03,07,90,4D
1317553900,00000220,false,0,8,D0,C3,88,90,03,0A,90,51
1317563700,00000220,false,0,8,CF,E3,88,90,03,07,90,6D
1317573700,00000220,false,0,8,CF,E3,88,90,03,06,90,7A
1317583900,00000220,false,0,8,CE,E3,88,94,03,04,90,8D
1317593700,00000220,false,0,8,CD,E3,88,90,03,02,90,94
1317603800,00000220,false,0,8,CD,E3,88,90,03,04,90,A6
1317613800,00000220,false,0,8,D0,23,89,90,03,02,90,B8
1317623800,00000220,false,0,8,CF,23,89,90,03,FE,8F,C2
1317633800,00000220,false,0,8,D0,E3,88,90,03,FD,8F,D3
1317643800,00000220,false,0,8,D2,C3,88,94,03,01,90,EC
1317653800,00000220,false,0,8,D2,E3,88,90,03,01,90,F8
1317663600,00000220,false,0,8,D1,23,89,90,03,F9,8F,01
1317673800,00000220,false,0,8,D1,03,89,90,03,F6,8F,1C
1317683800,00000220,false,0,8,D1,C3,88,8C,03,FD,8F,2E
1317693600,00000220,false,0,8,D2,E3,88,90,03,04,90,3D
1317703700,00000220,false,0,8,D2,03,89,8C,03,04,90,48
1317713700,00000220,false,0,8,D2,03,89,90,03,01,90,5B
1317723700,00000220,false,0,8,D1,C3,88,90,03,01,90,69
1317733700,00000220,false,0,8,D3,C3,88,90,03,08,90,70
1317743700,00000220,false,0,8,D2,A3,88,8C,03,0B,90,8E
1317753600,00000220,false,0,8,D1,83,88,8C,03,00,90,92
1317763500,00000220,false,0,8,D2,83,88,94,03,F9,8F,A5
1317773400,00000220,false,0,8,D0,63,88,94,03,FC,8F,B4
1317783600,00000220,false,0,8,CF,C3,88,94,03,FF,8F,C6
1317793400,00000220,false,0,8,CF,E3,88,98,03,05,90,D3
1317803600,00000220,false,0,8,D2,03,89,94,03,0A,90,E6
1317813300,00000220,false,0,8,D1,03,89,94,03,06,90,F3
1317823600,00000220,false,0,8,D1,03,89,90,03,02,90,0B
1317833500,00000220,false,0,8,D2,03,89,98,03,FD,8F,1C
1317843500,00000220,false,0,8,D0,E3,88,94,03,FC,8F,24
1317853300,00000220,false,0,8,CE,C3,88,94,03,00,90,39
1317863400,00000220,false,0,8,CD,C3,88,94,03,FF,8F,44
1317873500,00000220,false,0,8,CC,C3,88,94,03,FF,8F,55
1317883500,00000220,false,0,8,CD,C3,88,94,03,FC,8F,63
1317893300,00000220,false,0,8,CE,A3,88,94,03,FF,8F,77
1317903500,00000220,false,0,8,CE,C3,88,98,03,01,90,8C
1317913400,00000220,false,0,8,CC,E3,88,8C,03,FB,8F,99
1317923500,00000220,false,0,8,CE,E3,88,98,03,FD,8F,A9
1317933400,00000220,false,0,8,D1,C3,88,94,03,FC,8F,B7
1317943400,00000220,false,0,8,D1,A3,88,94,03,FB,8F,C4
1317953400,00000220,false,0,8,D1,C3,88,98,03,00,90,DE
1317963300,00000220,false,0,8,D1,A3,88,98,03,04,90,E2
1317973300,00000220,false,0,8,D1,A3,88,90,03,01,90,F9
1317983400,00000220,false,0,8,D2,03,89,98,03,00,90,00
1317993200,00000220,false,0,8,D1,03,89,94,03,00,90,1D
1318003400,00000220,false,0,8,D0,C3,88,98,03,FF,8F,2D
1318013300,00000220,false,0,8,D1,03,89,90,03,FE,8F,34
1318023300,00000220,false,0,8,D0,23,89,94,03,FB,8F,44
1318033300,00000220,false,0,8,CF,03,89,94,03,FE,8F,56
1318043300,00000220,false,0,8,D0,E3,88,94,03,04,90,6F
1318053300,00000220,false,0,8,CF,A3,88,98,03,04,90,70
1318063100,00000220,false,0,8,D0,C3,88,94,03,03,90,8C
1318073200,00000220,false,0,8,CD,63,88,94,03,00,90,96
1318083300,00000220,false,0,8,CA,83,88,98,03,FE,8F,A4
1318093100,00000220,false,0,8,CA,A3,88,94,03,01,90,B4
1318103200,00000220,false,0,8,CD,C3,88,98,03,04,90,CE
1318113000,00000220,false,0,8,D0,E3,88,94,03,01,90,DA
1318123200,00000220,false,0,8,CF,A3,88,98,03,F8,8F,E5
1318133200,00000220,false,0,8,CD,A3,88,94,03,FD,8F,F2
1318143200,00000220,false,0,8,CC,E3,88,94,03,02,90,09
1318153200,00000220,false,0,8,CD,E3,88,94,03,02,90,18
1318163000,00000220,false,0,8,CE,03,89,9C,03,02,90,22
1318173100,00000220,false,0,8,CC,E3,88,98,03,04,90,3F
1318183100,00000220,false,0,8,CC,E3,88,98,03,FD,8F,47
1318192900,00000220,false,0,8,CC,03,89,98,03,FE,8F,59
1318203100,00000220,false,0,8,CE,E3,88,A0,03,05,90,68
1318213100,00000220,false,0,8,D0,23,89,98,03,04,90,72
1318223100,00000220,false,0,8,D0,23,89,9C,03,01,90,85
1318233100,00000220,false,0,8,CE,03,89,9C,03,02,90,92
1318243100,00000220,false,0,8,CD,C3,88,98,03,01,90,AD
1318252800,00000220,false,0,8,CD,E3,88,98,03,FF,8F,B8
1318262900,00000220,false,0,8,CC,C3,88,98,03,00,90,CB
1318272900,00000220,false,0,8,CC,83,88,9C,03,04,90,D3
1318283000,00000220,false,0,8,CE,83,88,9C,03,03,90,E2
1318292900,00000220,false,0,8,D1,C3,88,A0,03,02,90,F8
1318303000,00000220,false,0,8,D1,C3,88,9C,03,03,90,07
1318313000,00000220,false,0,8,CF,C3,88,9C,03,03,90,15
1318323000,00000220,false,0,8,D0,03,89,98,03,05,90,25
1318332900,00000220,false,0,8,CF,03,89,9C,03,04,90,37
1318342900,00000220,false,0,8,CF,03,89,A0,03,FF,8F,45
1318352900,00000220,false,0,8,D0,E3,88,A0,03,F7,8F,5D
1318362800,00000220,false,0,8,D2,E3,88,98,03,F6,8F,64
1318372800,00000220,false,0,8,D5,A3,88,98,03,FF,8F,70
1318382900,00000220,false,0,8,D4,83,88,A0,03,05,90,8E
1318392700,00000220,false,0,8,D2,A3,88,A0,03,05,90,9C
1318402900,00000220,false,0,8,D3,83,88,9C,03,03,90,A9
1318412600,00000220,false,0,8,D2,A3,88,98,03,07,90,B6
1318422800,00000220,false,0,8,D0,C3,88,A0,03,09,90,CE
1318432800,00000220,false,0,8,D0,E3,88,98,03,0A,90,D9
1318442600,00000220,false,0,8,CF,03,89,A0,03,02,90,E9
1318452800,00000220,false,0,8,CF,E3,88,A0,03,FB,8F,FE
1318462600,00000220,false,0,8,CF,C3,88,9C,03,FB,8F,0A
1318472800,00000220,false,0,8,D0,23,89,A0,03,FB,8F,10
1318482800,00000220,false,0,8,D1,43,89,A0,03,FD,8F,25
1318492700,00000220,false,0,8,CF,03,89,9C,03,FD,8F,3F
1318502800,00000220,false,0,8,CD,03,89,9C,03,00,90,41
1318512500,00000220,false,0,8,CD,63,89,A0,03,00,90,55
1318522700,00000220,false,0,8,CC,63,89,9C,03,FB,8F,68
1318532700,00000220,false,0,8,CC,43,89,9C,03,FF,8F,7C
1318542700,00000220,false,0,8,CD,03,89,98,03,09,90,84
1318552700,00000220,false,0,8,CE,E3,88,A0,03,09,90,9C
1318562500,00000220,false,0,8,CF,E3,88,9C,03,06,90,A6
1318572500,00000220,false,0,8,CE,E3,88,A4,03,06,90,BF
1318582700,00000220,false,0,8,CE,E3,88,9C,03,05,90,C4
1318592400,00000220,false,0,8,CF,A3,88,98,03,01,90,DF
1318602600,00000220,false,0,8,D2,A3,88,A0,03,FC,8F,E2
1318612600,00000220,false,0,8,D1,A3,88,9C,03,FB,8F,FC
1318622600,00000220,false,0,8,CF,C3,88,98,03,02,90,0E
1318632600,00000220,false,0,8,D2,C3,88,98,03,03,90,12
1318642600,00000220,false,0,8,D4,C3,88,A0,03,07,90,20
1318652500,00000220,false,0,8,D3,E3,88,9C,03,0B,90,31
1318662400,00000220,false,0,8,D1,C3,88,A0,03,09,90,41
1318672400,00000220,false,0,8,D0,E3,88,9C,03,0A,90,5D
1318682500,00000220,false,0,8,D0,C3,88,9C,03,0B,90,6C
1318692400,00000220,false,0,8,D0,A3,88,98,03,07,90,74
1318702500,00000220,false,0,8,CF,E3,88,A0,03,05,90,8B
1318712500,00000220,false,0,8,CF,E3,88,A0,03,03,90,99
1318722500,00000220,false,0,8,CF,C3,88,9C,03,03,90,A5
1318732400,00000220,false,0,8,D1,C3,88,A0,03,01,90,B9
1318742400,00000220,false,0,8,D1,03,89,9C,03,03,90,C6
1318752400,00000220,false,0,8,D0,23,89,9C,03,05,90,D9
1318762300,00000220,false,0,8,CE,E3,88,A0,03,01,90,E4
1318772200,00000220,false,0,8,CD,03,89,9C,03,FD,8F,FD
1318782400,00000220,false,0,8,CE,E3,88,A0,03,FC,8F,0E
1318792200,00000220,false,0,8,CE,E3,88,98,03,FC,8F,16
1318802400,00000220,false,0,8,CE,A3,88,9C,03,00,90,21
1318812300,00000220,false,0,8,CE,A3,88,A0,03,FE,8F,30
1318822300,00000220,false,0,8,CE,C3,88,9C,03,00,90,41
1318832300,00000220,false,0,8,CE,23,89,98,03,07,90,55
1318842300,00000220,false,0,8,CF,03,89,A0,03,06,90,6D
1318852300,00000220,false,0,8,D1,E3,88,9C,03,FF,8F,70
1318862200,00000220,false,0,8,D2,A3,88,9C,03,00,90,85
1318872100,00000220,false,0,8,D1,63,88,A0,03,00,90,96
1318882300,00000220,false,0,8,D3,A3,88,9C,03,FF,8F,A2
1318892200,00000220,false,0,8,D2,E3,88,A0,03,01,90,B8
1318902200,00000220,false,0,8,CF,03,89,A0,03,06,90,CD
1318912200,00000220,false,0,8,CD,E3,88,A0,03,07,90,DB
1318922200,00000220,false,0,8,CD,E3,88,9C,03,05,90,E5
1318932200,00000220,false,0,8,D0,E3,88,9C,03,01,90,F2
1318942200,00000220,false,0,8,D2,E3,88,98,03,00,90,01
1318952200,00000220,false,0,8,D3,C3,88,A0,03,FD,8F,14
1318962000,00000220,false,0,8,D0,C3,88,9C,03,FF,8F,21
1318972200,00000220,false,0,8,D2,C3,88,98,03,02,90,33
1318982100,00000220,false,0,8,D3,E3,88,98,03,00,90,40
1318992000,00000220,false,0,8,D4,E3,88,9C,03,FD,8F,53
1319002100,00000220,false,0,8,D4,E3,88,A0,03,01,90,6A
1319012100,00000220,false,0,8,D2,03,89,A0,03,01,90,7B
